!File created by NanoVNA
# Hz S RI R 50
  10000000  0.023870150  0.002898350  0.829284352 -0.019471054 0 0 0 0
  24950000  0.025009296 -0.002038425  0.830513984 -0.066655032 0 0 0 0
  39900000  0.027403528 -0.005571823  0.829113344 -0.107532712 0 0 0 0
  54850000  0.029729252 -0.011416607  0.826998464 -0.148745232 0 0 0 0
  69800000  0.031137960 -0.017864218  0.822299328 -0.192420272 0 0 0 0
  84750000  0.030101502 -0.025938436  0.814757760 -0.237754576 0 0 0 0
  99700000  0.026037906 -0.033444976  0.802347136 -0.282283136 0 0 0 0
 114650000  0.018944920 -0.040059816  0.783879488 -0.327093792 0 0 0 0
 129600000  0.012309296 -0.043147456  0.764405696 -0.368597856 0 0 0 0
 144550000  0.006049221 -0.043305224  0.743316480 -0.407837248 0 0 0 0
 159500000  0.000994996 -0.042109496  0.718925696 -0.445068480 0 0 0 0
 174450000 -0.002286298 -0.040218616  0.694511040 -0.480709728 0 0 0 0
 189400000 -0.004384258 -0.038021912  0.666386304 -0.514585568 0 0 0 0
 204350000 -0.005319374 -0.036147468  0.637427776 -0.547982272 0 0 0 0
 219300000 -0.005990660 -0.034953780  0.606596864 -0.578836416 0 0 0 0
 234250000 -0.006484975 -0.034386860  0.572823808 -0.607646720 0 0 0 0
 249200000 -0.007256311 -0.034560068  0.539136768 -0.634149632 0 0 0 0
 264150000 -0.008707425 -0.034988540  0.503454080 -0.657153216 0 0 0 0
 279100000 -0.010901321 -0.035383120  0.468045440 -0.677848448 0 0 0 0
 294050000 -0.013538732 -0.035100548  0.432551328 -0.696555904 0 0 0 0
 309000000 -0.016487020 -0.034165576  0.396974496 -0.713088896 0 0 0 0
 323950000 -0.019781256 -0.032032084  0.361987328 -0.729337600 0 0 0 0
 338900000 -0.022669474 -0.028733832  0.325406112 -0.744444352 0 0 0 0
 353850000 -0.024844234 -0.024588782  0.289480640 -0.757423936 0 0 0 0
 368800000 -0.026117586 -0.019696372  0.251202640 -0.769436608 0 0 0 0
 383750000 -0.025776450 -0.014134882  0.213495488 -0.779391616 0 0 0 0
 398700000 -0.024290516 -0.008599245  0.174576144 -0.787110400 0 0 0 0
 413650000 -0.021145504 -0.003315460  0.136433200 -0.792661504 0 0 0 0
 428600000 -0.016553559  0.001380009  0.097296640 -0.797017664 0 0 0 0
 443550000 -0.011119078  0.004919268  0.059362600 -0.799046848 0 0 0 0
 458500000 -0.004887353  0.007546696  0.020462492 -0.800159808 0 0 0 0
 473450000  0.001357101  0.008907585 -0.017874428 -0.798890752 0 0 0 0
 488400000  0.007576996  0.008672351 -0.056386024 -0.795735040 0 0 0 0
 503350000  0.013386480  0.007307444 -0.095285800 -0.791093568 0 0 0 0
 518300000  0.018478480  0.005272893 -0.132904216 -0.784438848 0 0 0 0
 533250000  0.022737256  0.002475291 -0.170865232 -0.775023424 0 0 0 0
 548200000  0.026023614 -0.000623643 -0.208207408 -0.764886144 0 0 0 0
 563150000  0.028536680 -0.003851287 -0.243807152 -0.752327616 0 0 0 0
 578100000  0.030458336 -0.006567244 -0.279425344 -0.738229184 0 0 0 0
 593050000  0.031958882 -0.008917755 -0.313418496 -0.722111744 0 0 0 0
 608000000  0.033757736 -0.010814974 -0.348290176 -0.705352576 0 0 0 0
 622950000  0.035377444 -0.012245060 -0.379638368 -0.687724672 0 0 0 0
 637900000  0.037666408 -0.013445626 -0.411976032 -0.667923584 0 0 0 0
 652850000  0.041155852 -0.014132252 -0.441993472 -0.647792000 0 0 0 0
 667800000  0.044829252 -0.014977389 -0.474672288 -0.624608128 0 0 0 0
 682750000  0.049604828 -0.016046899 -0.503312832 -0.601718848 0 0 0 0
 697700000  0.055251196 -0.017626660 -0.532165952 -0.575735552 0 0 0 0
 712650000  0.061245220 -0.019987612 -0.559944640 -0.547341312 0 0 0 0
 727600000  0.067846400 -0.023533012 -0.586026240 -0.518500800 0 0 0 0
 742550000  0.073999632 -0.028053364 -0.608596416 -0.487749056 0 0 0 0
 757500000  0.079882352 -0.033038624 -0.630242304 -0.454501344 0 0 0 0
 772450000  0.085247832 -0.039389228 -0.650023872 -0.421676544 0 0 0 0
 787400000  0.089536248 -0.046540896 -0.666972416 -0.387590432 0 0 0 0
 802350000  0.092681272 -0.053586704 -0.680945984 -0.356040448 0 0 0 0
 817300000  0.094568720 -0.061590196 -0.694780608 -0.320338912 0 0 0 0
 832250000  0.095568608 -0.069292192 -0.705580352 -0.288999840 0 0 0 0
 847200000  0.095203376 -0.076983944 -0.716999680 -0.256684000 0 0 0 0
 862150000  0.093808984 -0.083922232 -0.725787776 -0.224398176 0 0 0 0
 877100000  0.092063600 -0.090263352 -0.735734912 -0.193516352 0 0 0 0
 892050000  0.090000056 -0.095685608 -0.745030912 -0.160036832 0 0 0 0
 907000000  0.087754928 -0.100477808 -0.754126848 -0.126302336 0 0 0 0
 921950000  0.085938600 -0.104336616 -0.761915328 -0.089609672 0 0 0 0
 936900000  0.085022928 -0.107886280 -0.768476416 -0.052897292 0 0 0 0
 951850000  0.084409720 -0.110701136 -0.773040832 -0.013142488 0 0 0 0
 966800000  0.084719712 -0.113717376 -0.773530112  0.027066986 0 0 0 0
 981750000  0.085706760 -0.116547632 -0.770894912  0.070008072 0 0 0 0
 996700000  0.086576816 -0.120580592 -0.764014720  0.111534104 0 0 0 0
1011650000  0.088164152 -0.124951896 -0.752696320  0.149994224 0 0 0 0
1026600000  0.089617712 -0.129891664 -0.738350208  0.188096512 0 0 0 0
1041550000  0.089824256 -0.136144432 -0.721391488  0.223870800 0 0 0 0
1056500000  0.089428008 -0.143005728 -0.704693056  0.253936320 0 0 0 0
1071450000  0.087956384 -0.149362800 -0.687562176  0.280983104 0 0 0 0
1086400000  0.084407808 -0.156924080 -0.670586688  0.308394080 0 0 0 0
1101350000  0.079719136 -0.163662384 -0.656242880  0.332910496 0 0 0 0
1116300000  0.073146992 -0.169969552 -0.642392960  0.357603904 0 0 0 0
1131250000  0.066051408 -0.175450576 -0.629080256  0.385567040 0 0 0 0
1146200000  0.057687732 -0.179393168 -0.614744832  0.413909920 0 0 0 0
1161150000  0.049110760 -0.182346160 -0.598585536  0.444326048 0 0 0 0
1176100000  0.040594432 -0.183794576 -0.579427520  0.476161696 0 0 0 0
1191050000  0.033670588 -0.183657744 -0.558410688  0.506017920 0 0 0 0
1206000000  0.027534546 -0.182813776 -0.533556448  0.535115552 0 0 0 0
1220950000  0.023039186 -0.180921232 -0.506868352  0.562378944 0 0 0 0
1235900000  0.020214050 -0.179197536 -0.476600064  0.588723904 0 0 0 0
1250850000  0.018781576 -0.177694368 -0.446125696  0.613671936 0 0 0 0
1265800000  0.018442452 -0.176955744 -0.411114048  0.636026688 0 0 0 0
1280750000  0.019678948 -0.177246640 -0.376606816  0.654886400 0 0 0 0
1295700000  0.020728686 -0.178178464 -0.340166912  0.670264896 0 0 0 0
1310650000  0.021180496 -0.180777040 -0.303757184  0.682107136 0 0 0 0
1325600000  0.021355462 -0.183313424 -0.267814816  0.689971008 0 0 0 0
1340550000  0.019224270 -0.186901648 -0.232851664  0.695639232 0 0 0 0
1355500000  0.015745627 -0.189799280 -0.204075792  0.699749440 0 0 0 0
1370450000  0.010911205 -0.192437488 -0.175571152  0.704537088 0 0 0 0
1385400000  0.004247374 -0.193765152 -0.147968928  0.711142272 0 0 0 0
1400350000 -0.003335714 -0.193480768 -0.118852232  0.719059456 0 0 0 0
1415300000 -0.011045390 -0.191155184 -0.086282928  0.727510208 0 0 0 0
1430250000 -0.016900548 -0.188145136 -0.052896144  0.733869312 0 0 0 0
1445200000 -0.023677906 -0.185566896 -0.015971754  0.738446208 0 0 0 0
1460150000 -0.030391744 -0.179841776  0.017626616  0.740160960 0 0 0 0
1475100000 -0.033373266 -0.171855232  0.056363080  0.740277312 0 0 0 0
1490050000 -0.033435032 -0.164591680  0.095062896  0.736941568 0 0 0 0
1505000000 -0.031191110 -0.158187712  0.129880056  0.731851776 0 0 0 0
1519950000 -0.026983510 -0.153005920  0.166102992  0.724147328 0 0 0 0
1534900000 -0.020626820 -0.150049200  0.200693552  0.715102400 0 0 0 0
1549850000 -0.013632323 -0.148911040  0.237106144  0.703497152 0 0 0 0
1564800000 -0.007131376 -0.150055312  0.274057088  0.691480128 0 0 0 0
1579750000 -0.000478848 -0.152101152  0.303641472  0.676144896 0 0 0 0
1594700000  0.003259401 -0.155451440  0.336847296  0.657014976 0 0 0 0
1609650000  0.005598490 -0.159265376  0.364760928  0.638504192 0 0 0 0
1624600000  0.004666951 -0.162691024  0.394309408  0.616760768 0 0 0 0
1639550000  0.002012065 -0.164401408  0.424169024  0.596065152 0 0 0 0
1654500000 -0.001857892 -0.164768944  0.447854464  0.576198080 0 0 0 0
1669450000 -0.006833357 -0.163108432  0.475166464  0.554251840 0 0 0 0
1684400000 -0.011206583 -0.160129552  0.498958432  0.535553152 0 0 0 0
1699350000 -0.015532415 -0.154141872  0.525479008  0.510240928 0 0 0 0
1714300000 -0.017784700 -0.147608768  0.550308672  0.484449376 0 0 0 0
1729250000 -0.017856926 -0.140414128  0.574032320  0.455982304 0 0 0 0
1744200000 -0.015849377 -0.133311200  0.595269632  0.428019904 0 0 0 0
1759150000 -0.010232480 -0.128504784  0.614719360  0.398154880 0 0 0 0
1774100000 -0.002801098 -0.125606288  0.632063808  0.367047776 0 0 0 0
1789050000  0.006433616 -0.125451536  0.648954752  0.335326112 0 0 0 0
1804000000  0.015357432 -0.128655376  0.663827648  0.304857728 0 0 0 0
1818950000  0.024480098 -0.134254032  0.677821824  0.268391104 0 0 0 0
1833900000  0.031990226 -0.142195376  0.687492928  0.237121232 0 0 0 0
1848850000  0.037620400 -0.151266496  0.694734784  0.207018720 0 0 0 0
1863800000  0.038867812 -0.161213952  0.706117248  0.172028224 0 0 0 0
1878750000  0.037883916 -0.170014368  0.710537728  0.141802640 0 0 0 0
1893700000  0.034106876 -0.177005568  0.719339968  0.103960280 0 0 0 0
1908650000  0.028409278 -0.181325920  0.722264832  0.071093200 0 0 0 0
1923600000  0.021880738 -0.182824400  0.724347264  0.036167376 0 0 0 0
1938550000  0.014164186 -0.181473088  0.725524096 -0.000157673 0 0 0 0
1953500000  0.007896474 -0.177341088  0.724067648 -0.037294860 0 0 0 0
1968450000  0.003385398 -0.171018352  0.720961856 -0.071294624 0 0 0 0
1983400000  0.001248780 -0.163726160  0.715308672 -0.107002336 0 0 0 0
1998350000  0.002122376 -0.158340432  0.707489920 -0.143792912 0 0 0 0
2013300000  0.004935188 -0.152694304  0.697731200 -0.173718512 0 0 0 0
2028250000  0.010246256 -0.150373536  0.687724416 -0.207278080 0 0 0 0
2043200000  0.015652506 -0.150350048  0.673640768 -0.242246672 0 0 0 0
2058150000  0.022820382 -0.153582480  0.660623296 -0.269531040 0 0 0 0
2073100000  0.027477360 -0.160790224  0.644544640 -0.301850464 0 0 0 0
2088050000  0.033065350 -0.169208640  0.634404608 -0.325511168 0 0 0 0
2103000000  0.034609648 -0.179790144  0.619026112 -0.355259840 0 0 0 0
2117950000  0.032786198 -0.189854448  0.602070592 -0.386830464 0 0 0 0
2132900000  0.029690626 -0.199050704  0.586107904 -0.411457856 0 0 0 0
2147850000  0.021697104 -0.205252432  0.564853504 -0.440712256 0 0 0 0
2162800000  0.012948006 -0.207411648  0.543107392 -0.467081056 0 0 0 0
2177750000  0.002635018 -0.206441632  0.517209056 -0.497077280 0 0 0 0
2192700000 -0.007940644 -0.199985104  0.491370624 -0.522695136 0 0 0 0
2207650000 -0.014816256 -0.192089824  0.466534208 -0.544359168 0 0 0 0
2222600000 -0.020989386 -0.179328128  0.435923616 -0.567394432 0 0 0 0
2237550000 -0.022619558 -0.167382016  0.410163296 -0.585488192 0 0 0 0
2252500000 -0.022047890 -0.152882176  0.377358272 -0.606015296 0 0 0 0
2267450000 -0.018065454 -0.142078208  0.347807104 -0.620049600 0 0 0 0
2282400000 -0.011033774 -0.133890584  0.319696800 -0.633141312 0 0 0 0
2297350000 -0.004420696 -0.128105152  0.287289696 -0.647999936 0 0 0 0
2312300000  0.004002468 -0.126534168  0.257335360 -0.659295680 0 0 0 0
2327250000  0.011479348 -0.128616736  0.225841840 -0.670465280 0 0 0 0
2342200000  0.017722648 -0.133364472  0.196932016 -0.681975744 0 0 0 0
2357150000  0.019709100 -0.139440112  0.169063776 -0.689005824 0 0 0 0
2372100000  0.018256984 -0.145748416  0.134861104 -0.698305536 0 0 0 0
2387050000  0.015632699 -0.150543296  0.105016472 -0.705628032 0 0 0 0
2402000000  0.010806995 -0.153930672  0.066548788 -0.713473472 0 0 0 0
2416950000  0.005304422 -0.151644256  0.032428730 -0.718449088 0 0 0 0
2431900000  0.001263596 -0.146753792 -0.010518984 -0.721174080 0 0 0 0
2446850000 -0.003236857 -0.136840464 -0.045493884 -0.721113600 0 0 0 0
2461800000 -0.003981027 -0.124708616 -0.085763712 -0.714818944 0 0 0 0
2476750000 -0.002557545 -0.110128248 -0.122759448 -0.707745728 0 0 0 0
2491700000  0.002356456 -0.095451800 -0.157031872 -0.696660608 0 0 0 0
2506650000  0.013017524 -0.080684320 -0.190636688 -0.683129344 0 0 0 0
2521600000  0.025049614 -0.068610368 -0.219337808 -0.672223232 0 0 0 0
2536550000  0.039807860 -0.061697080 -0.251829744 -0.661410304 0 0 0 0
2551500000  0.057894752 -0.056718656 -0.282792768 -0.647265408 0 0 0 0
2566450000  0.072416464 -0.059952084 -0.315907712 -0.633614016 0 0 0 0
2581400000  0.086849016 -0.066674844 -0.345687456 -0.615859584 0 0 0 0
2596350000  0.097987520 -0.074797424 -0.377558016 -0.594078464 0 0 0 0
2611300000  0.106020136 -0.084350104 -0.401341216 -0.572589952 0 0 0 0
2626250000  0.108651024 -0.097436600 -0.427810464 -0.549186112 0 0 0 0
2641200000  0.109690824 -0.104598696 -0.447331936 -0.524829856 0 0 0 0
2656150000  0.110289064 -0.114118744 -0.471447168 -0.505160320 0 0 0 0
2671100000  0.108636800 -0.118904616 -0.488726880 -0.488132864 0 0 0 0
2686050000  0.109026056 -0.121106168 -0.515977216 -0.465825216 0 0 0 0
2701000000  0.112148872 -0.118128184 -0.537603200 -0.447023168 0 0 0 0
2715950000  0.115807648 -0.113712632 -0.562795200 -0.426972096 0 0 0 0
2730900000  0.126077440 -0.112707968 -0.594197312 -0.397590496 0 0 0 0
2745850000  0.138867296 -0.106150600 -0.619174336 -0.364183168 0 0 0 0
2760800000  0.155317040 -0.103848592 -0.641700288 -0.325642432 0 0 0 0
2775750000  0.171952480 -0.104943576 -0.656662592 -0.284407552 0 0 0 0
2790700000  0.185506608 -0.112106344 -0.672476992 -0.240886976 0 0 0 0
2805650000  0.203354624 -0.119785064 -0.673366208 -0.202308048 0 0 0 0
2820600000  0.214995648 -0.135066352 -0.674797376 -0.160728640 0 0 0 0
2835550000  0.227044144 -0.154069904 -0.666340544 -0.120942048 0 0 0 0
2850500000  0.229578352 -0.170575984 -0.664685760 -0.088896088 0 0 0 0
2865450000  0.228575200 -0.191317584 -0.657929152 -0.063690348 0 0 0 0
2880400000  0.227667840 -0.208963904 -0.649627008 -0.036386632 0 0 0 0
2895350000  0.219065184 -0.227630176 -0.643521984 -0.014422866 0 0 0 0
2910300000  0.211809632 -0.240212672 -0.639534144  0.009537837 0 0 0 0
2925250000  0.203226192 -0.252256688 -0.638891840  0.028285044 0 0 0 0
2940200000  0.189357424 -0.258353376 -0.638229568  0.051929044 0 0 0 0
2955150000  0.184271184 -0.266979360 -0.643523264  0.075619560 0 0 0 0
2970100000  0.182276624 -0.268100080 -0.649499776  0.103634144 0 0 0 0
2985050000  0.178533808 -0.270606784 -0.653266752  0.122641320 0 0 0 0
3000000000  0.182382048 -0.274288096 -0.661460544  0.165513024 0 0 0 0
