!File created by NanoVNA
# Hz S RI R 50
  10000000  0.024586206  0.002820736
  24950000  0.025312154 -0.000870886
  39900000  0.027701180 -0.003102682
  54850000  0.030276360 -0.008099546
  69800000  0.031599348 -0.013812500
  84750000  0.030978990 -0.020764590
  99700000  0.027327460 -0.027332550
 114650000  0.021194200 -0.033121714
 129600000  0.015278399 -0.035360424
 144550000  0.009650038 -0.035260012
 159500000  0.005204594 -0.033461784
 174450000  0.002231469 -0.031076142
 189400000  0.000748057 -0.028426242
 204350000  0.000177302 -0.026280256
 219300000  0.000117425 -0.024712684
 234250000  0.000152628 -0.023777744
 249200000 -0.000215783 -0.023734926
 264150000 -0.001109721 -0.023783850
 279100000 -0.002972688 -0.023785292
 294050000 -0.005127533 -0.023479722
 309000000 -0.007916824 -0.022332550
 323950000 -0.010702255 -0.020261732
 338900000 -0.013247943 -0.016984658
 353850000 -0.015316824 -0.012910571
 368800000 -0.016252511 -0.007993409
 383750000 -0.015790094 -0.002765512
 398700000 -0.014016065  0.002725823
 413650000 -0.010753601  0.008085817
 428600000 -0.006085634  0.012819006
 443550000 -0.000578867  0.016390693
 458500000  0.005760076  0.019242288
 473450000  0.011998736  0.020352730
 488400000  0.018426834  0.020430488
 503350000  0.024270542  0.019182272
 518300000  0.029426728  0.017422266
 533250000  0.033676236  0.014787903
 548200000  0.036842796  0.012209225
 563150000  0.039328760  0.008978458
 578100000  0.041419076  0.006423931
 593050000  0.042695160  0.004324750
 608000000  0.044274520  0.002531267
 622950000  0.045677288  0.001303538
 637900000  0.047702224  0.000347936
 652850000  0.050635836 -0.000221199
 667800000  0.054337244 -0.000737100
 682750000  0.058963340 -0.001596010
 697700000  0.064309784 -0.002767355
 712650000  0.070017552 -0.004753917
 727600000  0.076314536 -0.007456855
 742550000  0.082650104 -0.011253883
 757500000  0.088580008 -0.015605334
 772450000  0.094127048 -0.021294718
 787400000  0.098472344 -0.027624058
 802350000  0.102155152 -0.033883564
 817300000  0.104501584 -0.040398728
 832250000  0.105885064 -0.047732644
 847200000  0.106340304 -0.054902992
 862150000  0.105176632 -0.061436944
 877100000  0.103718352 -0.067321384
 892050000  0.101706528 -0.072195016
 907000000  0.099609832 -0.076779296
 921950000  0.098330296 -0.080103224
 936900000  0.097482536 -0.083210232
 951850000  0.097409296 -0.085963864
 966800000  0.098117432 -0.088080832
 981750000  0.099348784 -0.090679288
 996700000  0.101111496 -0.093852872
1011650000  0.103259560 -0.097864360
1026600000  0.105677232 -0.102564072
1041550000  0.106990152 -0.107991832
1056500000  0.107690376 -0.113955912
1071450000  0.107171944 -0.120192568
1086400000  0.104851208 -0.127320736
1101350000  0.101254008 -0.133796912
1116300000  0.095597400 -0.140289424
1131250000  0.089399648 -0.145620912
1146200000  0.081840168 -0.149858832
1161150000  0.073766464 -0.153092448
1176100000  0.066224664 -0.154519008
1191050000  0.059146952 -0.155154992
1206000000  0.053565756 -0.154406944
1220950000  0.049429752 -0.152832336
1235900000  0.046931680 -0.151499568
1250850000  0.046073432 -0.150064064
1265800000  0.046285672 -0.149717424
1280750000  0.048108016 -0.149918416
1295700000  0.049642444 -0.151161824
1310650000  0.051448592 -0.153534240
1325600000  0.051983680 -0.157045056
1340550000  0.050502572 -0.161009168
1355500000  0.047807756 -0.164477728
1370450000  0.043114860 -0.167459040
1385400000  0.037192068 -0.169780560
1400350000  0.029425968 -0.170179920
1415300000  0.021360542 -0.168956800
1430250000  0.013279269 -0.165821024
1445200000  0.006760163 -0.161286448
1460150000  0.000883075 -0.155497856
1475100000 -0.001644800 -0.148783392
1490050000 -0.002625065 -0.141801568
1505000000  0.000018720 -0.135488816
1519950000  0.003536789 -0.130692784
1534900000  0.009979815 -0.127331424
1549850000  0.016821560 -0.126009944
1564800000  0.024203964 -0.126651776
1579750000  0.030982858 -0.128562136
1594700000  0.035363396 -0.131726144
1609650000  0.038024316 -0.135278608
1624600000  0.038035032 -0.138824864
1639550000  0.035723140 -0.141108080
1654500000  0.032206662 -0.141466992
1669450000  0.028025970 -0.140213344
1684400000  0.022970970 -0.137215424
1699350000  0.018803318 -0.131347776
1714300000  0.016337913 -0.124954008
1729250000  0.016106198 -0.117450952
1744200000  0.018583592 -0.110362944
1759150000  0.023276144 -0.104821232
1774100000  0.030671268 -0.101400664
1789050000  0.039585228 -0.100655416
1804000000  0.049736460 -0.102895664
1818950000  0.059636920 -0.107818528
1833900000  0.068395800 -0.115226616
1848850000  0.075474240 -0.124177256
1863800000  0.078471272 -0.134268208
1878750000  0.079030200 -0.143624480
1893700000  0.077321352 -0.151080496
1908650000  0.072317920 -0.156510800
1923600000  0.066540792 -0.159125856
1938550000  0.059266584 -0.159029328
1953500000  0.053365808 -0.156046544
1968450000  0.048964620 -0.150372880
1983400000  0.047029060 -0.144092224
1998350000  0.047436836 -0.139034016
2013300000  0.049871380 -0.133491400
2028250000  0.055768840 -0.131359072
2043200000  0.061465404 -0.132316712
2058150000  0.068974328 -0.135456192
2073100000  0.075560016 -0.142942512
2088050000  0.081634552 -0.150857968
2103000000  0.083552752 -0.163507504
2117950000  0.083376304 -0.174745248
2132900000  0.080801424 -0.185443008
2147850000  0.074301784 -0.193333328
2162800000  0.066233272 -0.197885808
2177750000  0.056654104 -0.199030288
2192700000  0.046307000 -0.195455728
2207650000  0.037817696 -0.189731296
2222600000  0.030355178 -0.179604448
2237550000  0.026735094 -0.168215792
2252500000  0.025142550 -0.155493952
2267450000  0.027036068 -0.145279568
2282400000  0.032201502 -0.137155536
2297350000  0.037635308 -0.131532536
2312300000  0.045848552 -0.130873504
2327250000  0.051187600 -0.133161200
2342200000  0.055941980 -0.137735408
2357150000  0.058002040 -0.144782976
2372100000  0.056397120 -0.152280464
2387050000  0.053400656 -0.157838528
2402000000  0.047785300 -0.162596528
2416950000  0.040912040 -0.162074112
2431900000  0.035083988 -0.158401840
2446850000  0.028601810 -0.150025312
2461800000  0.025090568 -0.138354432
2476750000  0.024059612 -0.123498496
2491700000  0.026820566 -0.107621920
2506650000  0.034074192 -0.092900824
2521600000  0.045204848 -0.077825648
2536550000  0.057817332 -0.069815856
2551500000  0.071819504 -0.062404892
2566450000  0.087050440 -0.063938148
2581400000  0.100076144 -0.068100056
2596350000  0.109481904 -0.074664152
2611300000  0.117883432 -0.083684232
2626250000  0.122587832 -0.093637960
2641200000  0.123453928 -0.102685400
2656150000  0.123389264 -0.109316104
2671100000  0.120240424 -0.116206016
2686050000  0.121227552 -0.113603968
2701000000  0.124229288 -0.113142120
2715950000  0.125993312 -0.110760464
2730900000  0.135920144 -0.105052520
2745850000  0.147117168 -0.098239656
2760800000  0.162265152 -0.091533224
2775750000  0.179345824 -0.089721272
2790700000  0.194158512 -0.093473912
2805650000  0.212792416 -0.098002792
2820600000  0.225463744 -0.111002024
2835550000  0.238236128 -0.127334264
2850500000  0.243836576 -0.142888080
2865450000  0.245113088 -0.163364512
2880400000  0.245297088 -0.179907152
2895350000  0.240156144 -0.199699536
2910300000  0.236208592 -0.211546560
2925250000  0.228920880 -0.223569344
2940200000  0.216980272 -0.233357632
2955150000  0.213260944 -0.243504656
2970100000  0.211390608 -0.246943888
2985050000  0.206149248 -0.253971184
3000000000  0.212406112 -0.255034800
