! Version 1.0
! Name        :	PRP1-S11-VF.s1p
! Measurement : [new]
! Date        :	01-10-24 16:33:13
! Generated by:	MiQVNA
# HZ S RI R 50
! Freq	ReS11	ImS11
400000000	2.60548956348497E-02	-5.53135266959012E-03
401000000	2.54442496484931E-02	-5.89525936724293E-03
402000000	2.58046358825575E-02	-5.83575583502868E-03
403000000	0.026438407097202	-6.90062613492372E-03
404000000	2.56201960596354E-02	-5.49066780516273E-03
405000000	2.67749059003387E-02	-6.33536646487541E-03
406000000	2.69091096497074E-02	-6.50540426189401E-03
407000000	0.02682551522857	-6.89544549927132E-03
408000000	2.62487947125807E-02	-6.6820893490069E-03
409000000	2.56459467572359E-02	-5.64756884493996E-03
410000000	2.74810462512988E-02	-7.06898385196207E-03
411000000	2.64535580115572E-02	-6.08139787161759E-03
412000000	2.70567612127775E-02	-7.07124833304614E-03
413000000	2.64697206578098E-02	-6.26613367715606E-03
414000000	2.77340318381302E-02	-7.7123254353939E-03
415000000	2.72362034871707E-02	-6.95396719082197E-03
416000000	2.85902460305327E-02	-8.12583007481896E-03
417000000	2.86011533526683E-02	-0.007009128671247
418000000	2.80697599652186E-02	-7.04676425043149E-03
419000000	2.87533073693598E-02	-7.01134498686655E-03
420000000	2.77761259830351E-02	-6.86759308394029E-03
421000000	2.75945805664376E-02	-6.60380146154998E-03
422000000	2.91317156593871E-02	-7.67321429132166E-03
423000000	2.85339061909744E-02	-7.18060107638358E-03
424000000	2.83949947378483E-02	-7.09859716742705E-03
425000000	2.94805288899714E-02	-7.64521388451893E-03
426000000	2.79497479889225E-02	-6.50145148421071E-03
427000000	2.91437721470081E-02	-7.11030858288204E-03
428000000	0.028616014179217	-7.54289975997214E-03
429000000	3.07985904877241E-02	-7.93504284275503E-03
430000000	3.02810497759417E-02	-7.6598129087193E-03
431000000	2.92545494842246E-02	-6.76596842175549E-03
432000000	2.99461461190171E-02	-7.53183205564831E-03
433000000	3.07522628228441E-02	-7.92812384445395E-03
434000000	2.99720819239973E-02	-7.68583689893258E-03
435000000	2.93502934824781E-02	-7.80948537703062E-03
436000000	2.86723636269119E-02	-6.93515908277369E-03
437000000	3.16646419264122E-02	-7.82361353339423E-03
438000000	3.09440832008853E-02	-8.14033674965017E-03
439000000	2.93768359428783E-02	-7.23314382544691E-03
440000000	3.03596839466584E-02	-7.9137478385908E-03
441000000	2.90374162671955E-02	-6.18060994430993E-03
442000000	3.13666621219196E-02	-7.86037689381939E-03
443000000	3.04905735587998E-02	-7.93092090046341E-03
444000000	2.96716523340611E-02	-7.15714831212486E-03
445000000	0.031573532917036	-7.63649089591304E-03
446000000	3.17936411859396E-02	-8.13199771896188E-03
447000000	3.03938752497905E-02	-7.91613742392381E-03
448000000	3.13033615116591E-02	-7.74995960055053E-03
449000000	3.10503318581178E-02	-7.45632577915023E-03
450000000	3.10904214388105E-02	-7.38616185186952E-03
451000000	3.25612794220725E-02	-7.73761234816057E-03
452000000	3.23253213920109E-02	-8.20934804034284E-03
453000000	3.29469523379946E-02	-8.31726538835952E-03
454000000	3.20397320573255E-02	-8.26318131636717E-03
455000000	3.21892080320516E-02	-8.14306615792282E-03
456000000	0.030967944786098	-7.71461058844597E-03
457000000	3.33677725022787E-02	-8.50502775639393E-03
458000000	0.030776945820686	-7.74329180693159E-03
459000000	3.11700196702524E-02	-8.04096388292761E-03
460000000	0.033921739984354	-8.12781947018293E-03
461000000	3.27651910858087E-02	-7.93241727890398E-03
462000000	3.06430852886569E-02	-8.41080950141919E-03
463000000	3.27148582487992E-02	-8.20408299361628E-03
464000000	3.09980643986313E-02	-8.54745067953966E-03
465000000	3.29383933013759E-02	-7.95426940356289E-03
466000000	3.37942336520662E-02	-8.28693363722981E-03
467000000	0.033736667588157	-8.09744032166698E-03
468000000	3.46419467763212E-02	-7.65705942233375E-03
469000000	3.19821385883632E-02	-8.46475197187331E-03
470000000	3.18750918787725E-02	-8.2666913378335E-03
471000000	0.034214260525393	-8.23142084003681E-03
472000000	3.27183498492428E-02	-8.05623738311073E-03
473000000	3.31882957376582E-02	-8.34579064488325E-03
474000000	3.33593875567597E-02	-8.78438848004655E-03
475000000	3.42120336531343E-02	-8.41179051463164E-03
476000000	3.43600695086848E-02	-8.80939961032567E-03
477000000	3.44293647741421E-02	-8.63369778816393E-03
478000000	3.39676850320055E-02	-8.53271376806353E-03
479000000	3.55388286540649E-02	-8.34679232880355E-03
480000000	3.47233808507751E-02	-9.4482589536363E-03
481000000	3.57130372593205E-02	-8.58681378197305E-03
482000000	3.52152441958927E-02	-9.13295328693545E-03
483000000	0.035487683518888	-8.66514829199236E-03
484000000	3.49299799963085E-02	-0.009670104064786
485000000	3.49774799179274E-02	-9.83044190108217E-03
486000000	3.51448313343006E-02	-1.00677198528395E-02
487000000	3.63819133168044E-02	-9.30567650274084E-03
488000000	3.65430570769632E-02	-9.29227534742953E-03
489000000	3.56874192383849E-02	-1.00771635105851E-02
490000000	3.56201896887536E-02	-9.4584139317482E-03
491000000	3.75923172923643E-02	-8.97740597574278E-03
492000000	3.83436985973123E-02	-8.86845741863973E-03
493000000	0.036653721585973	-8.6747687380094E-03
494000000	3.73877698701444E-02	-8.68229777013904E-03
495000000	3.70021930860884E-02	-9.04710030792866E-03
496000000	3.90747689277961E-02	-0.007521126958649
497000000	3.93466056035384E-02	-8.46999039790296E-03
498000000	3.78753168367873E-02	-8.89863697813017E-03
499000000	3.89889343491295E-02	-8.81370755032141E-03
500000000	3.87207029293486E-02	-9.0100596440363E-03
501000000	0.036964106968802	-9.64888638412148E-03
502000000	3.87621618337238E-02	-8.52601114091268E-03
503000000	3.92305949064305E-02	-8.93573165487285E-03
504000000	3.86538892716943E-02	-8.5917259003312E-03
505000000	3.84567109149668E-02	-8.87394280981627E-03
506000000	0.038036081443607	-1.01671427716389E-02
507000000	3.95939024587215E-02	-0.007947278753089
508000000	3.90309501526342E-02	-9.27838602385531E-03
509000000	3.85607643480806E-02	-9.2960437421324E-03
510000000	3.77174013992262E-02	-1.10379458670767E-02
511000000	3.84357208066777E-02	-1.02929660840109E-02
512000000	3.92376574572611E-02	-9.76291550561416E-03
513000000	3.96916924630772E-02	-9.04457978337049E-03
514000000	3.87533064490913E-02	-1.08876833275029E-02
515000000	3.91299610793003E-02	-1.02216511560183E-02
516000000	3.97985213037878E-02	-9.03960266526553E-03
517000000	4.02503763390238E-02	-8.71550104014094E-03
518000000	3.93328889431994E-02	-1.05336747206836E-02
519000000	4.02072692897489E-02	-9.6109566035772E-03
520000000	0.039797174027725	-9.14725253180943E-03
521000000	3.95625810609766E-02	-9.98373090422167E-03
522000000	4.01772303126535E-02	-9.64860500541291E-03
523000000	0.041034221185579	-1.00232825437084E-02
524000000	4.17400645749237E-02	-9.10999405746231E-03
525000000	4.06586218230566E-02	-1.05732915244957E-02
526000000	4.06926883376148E-02	-1.04393043489059E-02
527000000	4.09922277677136E-02	-1.07200386938149E-02
528000000	4.06594738327057E-02	-1.09372059410516E-02
529000000	4.10976431149593E-02	-9.83978662611694E-03
530000000	4.19680726172164E-02	-9.58667805210392E-03
531000000	4.15246510522119E-02	-9.95197051047733E-03
532000000	4.13419025751478E-02	-1.00784576355642E-02
533000000	4.15474721785952E-02	-9.46367098237713E-03
534000000	4.17348922327619E-02	-1.06175593066337E-02
535000000	4.16379269033158E-02	-1.08826117912244E-02
536000000	4.14859411711608E-02	-1.32082481042801E-02
537000000	4.20775122274868E-02	-1.07482655499138E-02
538000000	4.18282578482548E-02	-1.09782856557756E-02
539000000	4.26526690947777E-02	-9.71554136573104E-03
540000000	4.26652037321644E-02	-1.12108373787732E-02
541000000	4.29360481048971E-02	-1.11776319068409E-02
542000000	4.28123719811318E-02	-1.07534047820911E-02
543000000	0.042080892882078	-0.011884352352071
544000000	4.24182872282638E-02	-1.22969718172842E-02
545000000	4.24732052839742E-02	-1.25437524831855E-02
546000000	4.34807591816123E-02	-1.20267279775698E-02
547000000	4.30817640285098E-02	-1.32885276204429E-02
548000000	4.34709925353218E-02	-1.19764354717107E-02
549000000	4.31875400277781E-02	-1.38461616541807E-02
550000000	4.33945098945711E-02	-1.48013808963537E-02
551000000	4.32677611073704E-02	-1.42824138422319E-02
552000000	4.44547315292069E-02	-1.40521929313859E-02
553000000	4.36638341586005E-02	-9.6290734849511E-03
554000000	0.044552430297244	-1.42153188055931E-02
555000000	4.35399495973012E-02	-1.41625480010814E-02
556000000	4.42751422353571E-02	-1.35686462744442E-02
557000000	4.47667025474022E-02	-1.43695412877088E-02
558000000	4.48319396723061E-02	-1.48659533577865E-02
559000000	4.47022194626726E-02	-1.48402974137583E-02
560000000	4.51451980911062E-02	-1.06615824456687E-02
561000000	0.046418222458458	-0.016782393732757
562000000	4.58301596121049E-02	-1.65158605779026E-02
563000000	4.50205884819647E-02	-1.34392481022174E-02
564000000	4.52050496996483E-02	-1.26958272087884E-02
565000000	4.66028409039675E-02	-1.58157142493215E-02
566000000	4.64753842744141E-02	-1.45251232369394E-02
567000000	4.65903957077491E-02	-1.16319452908272E-02
568000000	4.60412884393005E-02	-1.47759747445294E-02
569000000	4.85883194449137E-02	-1.75594857532253E-02
570000000	4.66965136482279E-02	-1.12010471274943E-02
571000000	0.048092183711836	-1.47626261387822E-02
572000000	4.87157775651271E-02	-1.59784801900557E-02
573000000	4.89572215010938E-02	-1.74961402791945E-02
574000000	4.77715612874019E-02	-1.30094022192734E-02
575000000	4.80022635297257E-02	-1.44832342964542E-02
576000000	4.73267897224243E-02	-1.39952725520675E-02
577000000	4.82645346023941E-02	-1.67162378345871E-02
578000000	4.86267662375387E-02	-1.52765227640178E-02
579000000	4.88805457950962E-02	-1.57910045552485E-02
580000000	5.01503976048761E-02	-1.62133602375159E-02
581000000	4.88625104150512E-02	-1.41596204442131E-02
582000000	4.87386777026444E-02	-1.58409274748343E-02
583000000	5.01445088368538E-02	-1.65273739297818E-02
584000000	5.01716461014102E-02	-1.56172984342534E-02
585000000	0.049572622044106	-1.52234394723087E-02
586000000	5.11009996574098E-02	-1.72045190871058E-02
587000000	5.22983983581331E-02	-1.80257172889856E-02
588000000	5.15083487008438E-02	-1.66262927527013E-02
589000000	4.96197097968725E-02	-1.57664086856395E-02
590000000	5.17620529293577E-02	-0.019346245274661
591000000	5.04713582307261E-02	-1.67030462713028E-02
592000000	5.28533253075171E-02	-0.017484403891567
593000000	0.05046976302895	-1.69783286688547E-02
594000000	5.33622269581027E-02	-1.84581891574686E-02
595000000	5.09356012866225E-02	-1.80983175872202E-02
596000000	5.45450118068803E-02	-2.07630874659626E-02
597000000	4.95973518019557E-02	-1.71994558662967E-02
598000000	5.23131354978309E-02	-1.82046184436804E-02
599000000	4.98890892089857E-02	-1.75178395729966E-02
600000000	5.31341739307516E-02	-2.00431582148918E-02
601000000	4.98364996853168E-02	-1.53941026484959E-02
602000000	5.13694099953712E-02	-0.019052330749611
603000000	5.42932565331491E-02	-1.84439087283382E-02
604000000	5.24425357084304E-02	-1.89156080829411E-02
605000000	5.11799344571533E-02	-1.85651668687566E-02
606000000	5.13922381236849E-02	-1.78647957952934E-02
607000000	5.22331362247972E-02	-1.82529131686151E-02
608000000	5.38564127057698E-02	-2.00587856208839E-02
609000000	5.28903056260227E-02	-1.97744138910841E-02
610000000	5.33272421921121E-02	-0.020343271715532
611000000	5.59226301179077E-02	-2.17849804386317E-02
612000000	5.44677740430277E-02	-0.022132797101374
613000000	5.36270956880109E-02	-2.17225137897135E-02
614000000	5.41023358827219E-02	-2.06949962714835E-02
615000000	5.45075374317808E-02	-2.14176665424337E-02
616000000	5.56629893161017E-02	-0.021291746384695
617000000	5.39601482253245E-02	-2.18024172021263E-02
618000000	5.35508397123775E-02	-2.16284748280592E-02
619000000	5.63365275528184E-02	-2.16046415826762E-02
620000000	5.45610706695715E-02	-2.22579879245992E-02
621000000	5.48037091186806E-02	-2.20623051807385E-02
622000000	5.48752582825182E-02	-2.31400974136595E-02
623000000	5.48810895487948E-02	-2.21752755664778E-02
624000000	5.33909866215285E-02	-0.022217921121264
625000000	5.68783208625964E-02	-2.38529688450747E-02
626000000	5.43693280165511E-02	-2.14337254704213E-02
627000000	5.37191024872159E-02	-2.42295059653393E-02
628000000	5.44741818598941E-02	-2.28915296474896E-02
629000000	5.21527605962608E-02	-2.34844779580945E-02
630000000	5.61430596142083E-02	-0.022823607475412
631000000	5.43366590795856E-02	-2.41379550375764E-02
632000000	5.30680136199608E-02	-2.38799300153417E-02
633000000	5.69040456224012E-02	-2.44270700099076E-02
634000000	5.50209064588746E-02	-2.33568180856875E-02
635000000	0.053844118866882	-2.52217951025406E-02
636000000	5.95662282985676E-02	-2.46829992430497E-02
637000000	5.67388621381483E-02	-2.63885362414681E-02
638000000	5.39433974088412E-02	-2.61896744415232E-02
639000000	5.91257623640238E-02	-2.56255672368508E-02
640000000	5.32444009768779E-02	-2.69380994911539E-02
641000000	5.60148238070517E-02	-2.66741797759152E-02
642000000	5.77672817301652E-02	-2.64470685853049E-02
643000000	5.71741145622807E-02	-2.79813540862923E-02
644000000	5.66113085487723E-02	-2.75662104547143E-02
645000000	0.05939310234631	-2.73649192702635E-02
646000000	5.82395286390204E-02	-2.71990749201366E-02
647000000	5.71731066361323E-02	-2.76670798780509E-02
648000000	5.56003863901204E-02	-2.87353604568381E-02
649000000	5.69702996704342E-02	-2.98335853853547E-02
650000000	5.81755337053926E-02	-2.91760124156445E-02
651000000	5.79613309847471E-02	-3.01696723459385E-02
652000000	0.058270452844607	-2.88783188315626E-02
653000000	6.10441027648339E-02	-2.87553544384753E-02
654000000	5.87541597430243E-02	-2.98667121572997E-02
655000000	5.67834499786433E-02	-2.99288283534832E-02
656000000	5.82652212484328E-02	-2.87045242456992E-02
657000000	6.13832090556863E-02	-2.98733022842275E-02
658000000	5.98402352050972E-02	-0.031401108184094
659000000	5.83416169570828E-02	-3.11498315019302E-02
660000000	5.98911683469482E-02	-3.18978310669126E-02
661000000	5.71964444626014E-02	-3.24558699812072E-02
662000000	6.15557290837571E-02	-3.18112045393794E-02
663000000	6.16838710690561E-02	-0.031109259125896
664000000	6.03334950687416E-02	-3.29234507911778E-02
665000000	5.95436611071947E-02	-3.25546691117189E-02
666000000	6.28020435147432E-02	-3.21740798973694E-02
667000000	6.15600674416962E-02	-3.25468854813591E-02
668000000	6.18098094200628E-02	-3.21594949727672E-02
669000000	5.87992893668031E-02	-3.40836012692863E-02
670000000	6.35261856524829E-02	-3.19077546748957E-02
671000000	0.063188049484372	-3.34829379728871E-02
672000000	6.24373848627017E-02	-3.37717098173897E-02
673000000	6.33419004286395E-02	-0.032298038021695
674000000	6.39864209860859E-02	-3.30083766846446E-02
675000000	6.28995078258309E-02	-0.031965712626895
676000000	6.18257986509599E-02	-3.51741559051885E-02
677000000	6.04957967456429E-02	-3.65775000660097E-02
678000000	6.30739033582095E-02	-3.41494050811963E-02
679000000	6.60969136772864E-02	-3.36180733282172E-02
680000000	6.18333058258235E-02	-3.47360479646608E-02
681000000	6.31613344556551E-02	-3.61922444599516E-02
682000000	6.31703669308677E-02	-3.60137095330411E-02
683000000	6.29394344358951E-02	-3.52534381059136E-02
684000000	6.27760933157703E-02	-3.52197628520273E-02
685000000	6.33163090277351E-02	-3.66884629871369E-02
686000000	6.31382603945959E-02	-3.46900280760775E-02
687000000	6.46184284279258E-02	-3.63876901881524E-02
688000000	6.31026860535886E-02	-0.037701713762745
689000000	0.062127731548512	-3.88244021666377E-02
690000000	0.063495411388341	-3.79920423492287E-02
691000000	6.41930602036925E-02	-3.91082437545685E-02
692000000	6.36732863120792E-02	-3.76844413039386E-02
693000000	6.39237998410195E-02	-0.038561910566107
694000000	6.50138997510073E-02	-3.81513875380392E-02
695000000	6.45788314943788E-02	-0.038729242856303
696000000	6.48391441640024E-02	-3.83780440096322E-02
697000000	6.51592074112789E-02	-0.039477079094663
698000000	6.60353611208194E-02	-3.90165691815906E-02
699000000	6.38581803721457E-02	-3.94405030273807E-02
700000000	6.55959392461793E-02	-4.02455364045012E-02
701000000	6.53734963879861E-02	-4.05297417866322E-02
702000000	6.48089310758615E-02	-0.042300207298478
703000000	6.59809760674165E-02	-3.99635127419075E-02
704000000	0.06545141449836	-4.26444173585092E-02
705000000	6.72570824754008E-02	-4.14993074634347E-02
706000000	6.50681069732618E-02	-4.12794876384055E-02
707000000	0.0658051187653	-0.042264646270273
708000000	6.56426380048553E-02	-4.14630014601979E-02
709000000	0.066358372661775	-4.12183776346252E-02
710000000	0.06698857251337	-4.44465570924374E-02
711000000	6.21021832653614E-02	-5.22738589842544E-02
712000000	6.68823457736046E-02	-4.45759470636838E-02
713000000	6.70802312557021E-02	-4.27869130851275E-02
714000000	6.68954278555124E-02	-4.35659060720212E-02
715000000	6.69670992322538E-02	-4.54291737798945E-02
716000000	6.75974035075736E-02	-0.044205422618573
717000000	6.76976739385015E-02	-4.39172974306442E-02
718000000	6.75597759837073E-02	-4.49226574168461E-02
719000000	6.81161521996481E-02	-4.27625157871471E-02
720000000	6.80664827137931E-02	-4.71534406683679E-02
721000000	0.06881422005361	-4.74133270914486E-02
722000000	6.80272974663775E-02	-4.62528335974481E-02
723000000	6.92424258687454E-02	-4.63459499415331E-02
724000000	6.91548951695539E-02	-4.69327757933796E-02
725000000	6.94438764565897E-02	-4.76014355189259E-02
726000000	6.92383059289313E-02	-4.60969390438356E-02
727000000	6.95755259517921E-02	-4.70394040868963E-02
728000000	6.87585002317921E-02	-4.77571256537453E-02
729000000	7.03493251891554E-02	-4.74785235861318E-02
730000000	6.94454744557248E-02	-4.76796615370942E-02
731000000	6.94113672638696E-02	-4.81353660648274E-02
732000000	6.95105281411056E-02	-0.048300013507221
733000000	0.070446493407249	-4.85221639202044E-02
734000000	7.08158447512853E-02	-4.98850402456036E-02
735000000	6.98302788980241E-02	-4.95487110539238E-02
736000000	0.070025755223016	-0.048782942060062
737000000	7.05247081265586E-02	-4.84926994018353E-02
738000000	0.070669906093659	-5.03470815141207E-02
739000000	7.11900750074737E-02	-5.01803730738894E-02
740000000	7.04462171189802E-02	-5.22998568644702E-02
741000000	7.04919615138377E-02	-5.15140854152789E-02
742000000	0.070884387716792	-5.11627884346878E-02
743000000	7.07453822504583E-02	-5.15434060098303E-02
744000000	7.13140262917872E-02	-5.13893498976152E-02
745000000	7.19387931735053E-02	-5.18396360980039E-02
746000000	0.07180077769522	-5.19032146079912E-02
747000000	7.14926889249104E-02	-5.21500886749852E-02
748000000	7.13879332087191E-02	-5.31347279725637E-02
749000000	0.072266874865746	-5.23114509365556E-02
750000000	7.18462082747075E-02	-5.33092411506319E-02
751000000	7.15658722019802E-02	-0.053766285780204
752000000	7.21138914047382E-02	-5.37951440574036E-02
753000000	7.26940816289614E-02	-5.43084229029939E-02
754000000	7.19322852175523E-02	-5.42140902700897E-02
755000000	8.07672383538768E-02	-0.044075897161214
756000000	7.10970845100752E-02	-5.53268234725776E-02
757000000	7.25653633019614E-02	-5.50441353754882E-02
758000000	7.25919510142859E-02	-5.58283311673839E-02
759000000	7.25983454295291E-02	-5.65116743342525E-02
760000000	7.14598286220662E-02	-5.72069702540589E-02
761000000	0.071817727826119	-0.05644133007604
762000000	7.18579354662206E-02	-5.63501292865413E-02
763000000	7.16912056423208E-02	-5.73510778919985E-02
764000000	7.21960267722774E-02	-0.05735326944376
765000000	7.39529917102329E-02	-5.65434409428888E-02
766000000	0.072606755085546	-5.81194509103196E-02
767000000	7.32013960260508E-02	-5.83573930395094E-02
768000000	7.14604042683259E-02	-5.86186397516283E-02
769000000	7.25522492420442E-02	-5.79707615482919E-02
770000000	7.24328780739593E-02	-5.91455443418163E-02
771000000	7.21596392790504E-02	-6.03010026311839E-02
772000000	7.24522912828878E-02	-5.96321008188539E-02
773000000	7.13677377175619E-02	-6.01054329304473E-02
774000000	7.21017473518872E-02	-5.99027190975585E-02
775000000	7.19715468000822E-02	-0.060896427655767
776000000	7.23233075656298E-02	-5.99555502398423E-02
777000000	7.31104719918479E-02	-6.13576722728064E-02
