! Version 1.0
! Name        :	PRP1-VF.s2p
! Measurement : [new]
! Date        :	01-10-24 16:33:13
! Generated by:	MiQVNA
# HZ S RI R 50
! Freq	ReS11	ImS11	ReS21	ImS21	ReS12	ImS12	ReS22	ImS22	ReS13	ImS13	ReS23	ImS23
400000000	2.60548956348497E-02	-5.53135266959012E-03	0.16626254068348	-0.771310495916667	0.168547292785402	-0.774197180993276	-1.17601511491208E-02	-1.17025633574451E-02	0	0	0	0
401000000	2.54442496484931E-02	-5.89525936724293E-03	0.162428348778479	-0.770100905527857	0.163930798346138	-0.773064364545933	-1.32646055010238E-02	-9.08039821229295E-03	0	0	0	0
402000000	2.58046358825575E-02	-5.83575583502868E-03	0.159589796518303	-0.771916006015104	0.162572978707587	-0.774172983450831	-1.11892899088548E-02	-1.30403833061418E-02	0	0	0	0
403000000	0.026438407097202	-6.90062613492372E-03	0.156536381263115	-0.772545868955513	0.15726157529298	-0.77272519366262	-1.24295254277515E-02	-1.00195546409193E-02	0	0	0	0
404000000	2.56201960596354E-02	-5.49066780516273E-03	0.154964700940947	-0.774590842285999	0.154924806852558	-0.773736532021195	-0.012374572633938	-9.73431566383126E-03	0	0	0	0
405000000	2.67749059003387E-02	-6.33536646487541E-03	0.150083023472874	-0.773643457648804	0.15263635712186	-0.774302291902552	-0.011966808414394	-1.07070333507136E-02	0	0	0	0
406000000	2.69091096497074E-02	-6.50540426189401E-03	0.14744179574169	-0.775745590760014	0.148701482203397	-0.773744275573062	-1.15732414424664E-02	-9.94230873793255E-03	0	0	0	0
407000000	0.02682551522857	-6.89544549927132E-03	0.144655773922578	-0.775954919177502	0.146795198136815	-0.775129435061846	-1.05553053120859E-02	-1.09807664172134E-02	0	0	0	0
408000000	2.62487947125807E-02	-6.6820893490069E-03	0.14116068081559	-0.774678331819435	0.143077214429146	-0.775452379776348	-1.07968430446903E-02	-1.06063967056997E-02	0	0	0	0
409000000	2.56459467572359E-02	-5.64756884493996E-03	0.13874533781086	-0.777045595197073	0.140516163156529	-0.775659703489965	-1.14839895161638E-02	-1.03847277422451E-02	0	0	0	0
410000000	2.74810462512988E-02	-7.06898385196207E-03	0.136305272459142	-0.775958004227686	0.13732008799073	-0.776956413920385	-1.13408540230277E-02	-1.04416210447781E-02	0	0	0	0
411000000	2.64535580115572E-02	-6.08139787161759E-03	0.131724162656095	-0.776034867416134	0.135116102171618	-0.776690642750676	-1.10257114637362E-02	-1.05275604182059E-02	0	0	0	0
412000000	2.70567612127775E-02	-7.07124833304614E-03	0.129653423927897	-0.776428689479771	0.13112532692191	-0.775554964935691	-1.19548370151809E-02	-9.79836517689934E-03	0	0	0	0
413000000	2.64697206578098E-02	-6.26613367715606E-03	0.124472595863791	-0.77682500090475	0.127794650203546	-0.777678613702328	-1.04014622545539E-02	-1.08883084752353E-02	0	0	0	0
414000000	2.77340318381302E-02	-7.7123254353939E-03	0.123191018388219	-0.77774592773864	0.123641669606022	-0.776452450945243	-1.04804496632452E-02	-1.04354068046286E-02	0	0	0	0
415000000	2.72362034871707E-02	-6.95396719082197E-03	0.120014368749915	-0.778048544449504	0.121758200229583	-0.77783102049435	-1.01808306396709E-02	-1.09058808890139E-02	0	0	0	0
416000000	2.85902460305327E-02	-8.12583007481896E-03	0.1175341055783	-0.778570632571661	0.118935553953357	-0.778636586637865	-0.011754024092172	-9.92607102195891E-03	0	0	0	0
417000000	2.86011533526683E-02	-0.007009128671247	0.113976257696351	-0.778560493434214	0.116727417130162	-0.778727708142392	-1.16215727382906E-02	-9.74575001822886E-03	0	0	0	0
418000000	2.80697599652186E-02	-7.04676425043149E-03	0.112407962825933	-0.779610055956834	0.112699121782921	-0.779118745378115	-1.15567179934165E-02	-1.16128802970599E-02	0	0	0	0
419000000	2.87533073693598E-02	-7.01134498686655E-03	0.109567507334859	-0.779779680659399	0.110663857936967	-0.778473546080457	-1.14584580477623E-02	-1.06792761013451E-02	0	0	0	0
420000000	2.77761259830351E-02	-6.86759308394029E-03	0.1058308715341	-0.779857617973358	0.108243472514918	-0.781160567068359	-1.16413533437625E-02	-1.07492542324414E-02	0	0	0	0
421000000	2.75945805664376E-02	-6.60380146154998E-03	0.103406336308822	-0.781078902741555	0.105572038828603	-0.781268375516622	-9.90854076182926E-03	-1.16399430105409E-02	0	0	0	0
422000000	2.91317156593871E-02	-7.67321429132166E-03	0.100807101694763	-0.782220685361844	0.101157834394133	-0.781008832876267	-1.12530570049286E-02	-1.10617081301575E-02	0	0	0	0
423000000	2.85339061909744E-02	-7.18060107638358E-03	9.84254658885537E-02	-0.782186781784819	9.85451062015854E-02	-0.782675428664948	-1.09763381513153E-02	-1.14237457362113E-02	0	0	0	0
424000000	2.83949947378483E-02	-7.09859716742705E-03	9.58419273895068E-02	-0.782708330889346	9.59773929973907E-02	-0.782978565670161	-1.09372039607181E-02	-1.15752409334055E-02	0	0	0	0
425000000	2.94805288899714E-02	-7.64521388451893E-03	9.21622972425808E-02	-0.783867220497041	9.43545487030509E-02	-0.783319643873937	-1.15794784857866E-02	-1.15731710679601E-02	0	0	0	0
426000000	2.79497479889225E-02	-6.50145148421071E-03	8.91356407870844E-02	-0.784765285105154	9.26582704958239E-02	-0.7828313343174	-1.07065298234698E-02	-1.16518067599548E-02	0	0	0	0
427000000	2.91437721470081E-02	-7.11030858288204E-03	8.65252198444327E-02	-0.78343952718818	0.087210209791303	-0.783490634673497	-1.03627702957665E-02	-1.13363575137792E-02	0	0	0	0
428000000	0.028616014179217	-7.54289975997214E-03	8.42798209149419E-02	-0.784806116676269	8.53302842595726E-02	-0.784316832848422	-9.96375799086865E-03	-1.20172362058823E-02	0	0	0	0
429000000	3.07985904877241E-02	-7.93504284275503E-03	8.26718241007145E-02	-0.785644860527319	8.24362516486672E-02	-0.784811019626101	-9.79483705315664E-03	-1.20666170769444E-02	0	0	0	0
430000000	3.02810497759417E-02	-7.6598129087193E-03	7.90931871171183E-02	-0.783608800296244	7.96885787569912E-02	-0.785341524789379	-0.010364225838023	-1.28479328187437E-02	0	0	0	0
431000000	2.92545494842246E-02	-6.76596842175549E-03	7.66994178218972E-02	-0.785525813878453	7.61088264849555E-02	-0.785763197455582	-9.36594178269598E-03	-1.27589578223313E-02	0	0	0	0
432000000	2.99461461190171E-02	-7.53183205564831E-03	7.28021256250204E-02	-0.785544099171779	7.40605564333778E-02	-0.786291403130276	-0.01045491006949	-1.18155655149822E-02	0	0	0	0
433000000	3.07522628228441E-02	-7.92812384445395E-03	7.01559596682476E-02	-0.784366340420627	0.070587136669926	-0.786298434335315	-1.05121898193654E-02	-1.24217423101793E-02	0	0	0	0
434000000	2.99720819239973E-02	-7.68583689893258E-03	6.74024396732641E-02	-0.785027756976342	0.067172301354164	-0.78670228926216	-1.04613495103039E-02	-1.23454702809193E-02	0	0	0	0
435000000	2.93502934824781E-02	-7.80948537703062E-03	6.37620619713717E-02	-0.786333107741778	0.065186323931607	-0.787991594035289	-9.19906948545642E-03	-1.31451773038618E-02	0	0	0	0
436000000	2.86723636269119E-02	-6.93515908277369E-03	6.26165933337096E-02	-0.786494349517646	6.14940979444308E-02	-0.787268426345265	-9.51316025005403E-03	-1.30014746283535E-02	0	0	0	0
437000000	3.16646419264122E-02	-7.82361353339423E-03	5.95855717845116E-02	-0.786115491434449	5.88543114539366E-02	-0.788489587254465	-8.88202760596149E-03	-1.38188649134136E-02	0	0	0	0
438000000	3.09440832008853E-02	-8.14033674965017E-03	5.71238395573807E-02	-0.78551131317893	5.87711281004257E-02	-0.7884975375237	-9.49592239139294E-03	-1.28932608257637E-02	0	0	0	0
439000000	2.93768359428783E-02	-7.23314382544691E-03	5.34248156992324E-02	-0.786837781459148	5.47624173263112E-02	-0.788246462827159	-9.13456688964148E-03	-1.37667631522944E-02	0	0	0	0
440000000	3.03596839466584E-02	-7.9137478385908E-03	5.26704251824797E-02	-0.786231851342395	5.35145856276083E-02	-0.788146456820041	-8.46530751464365E-03	-1.35983340550668E-02	0	0	0	0
441000000	2.90374162671955E-02	-6.18060994430993E-03	4.86644709995878E-02	-0.787349031068652	5.02183490297852E-02	-0.787186064337404	-8.29868279820716E-03	-1.49385051410765E-02	0	0	0	0
442000000	3.13666621219196E-02	-7.86037689381939E-03	4.64997085575934E-02	-0.785657945996162	4.62928644316077E-02	-0.788270860259501	-7.64650695662701E-03	-1.35256803809213E-02	0	0	0	0
443000000	3.04905735587998E-02	-7.93092090046341E-03	0.044049493120155	-0.787527964302124	4.41455590732869E-02	-0.788838142868657	-1.03574510135892E-02	-1.32918786676166E-02	0	0	0	0
444000000	2.96716523340611E-02	-7.15714831212486E-03	4.11608872384594E-02	-0.787211800632422	4.27537468458673E-02	-0.788897212500944	-7.73266731514434E-03	-1.37711253619936E-02	0	0	0	0
445000000	0.031573532917036	-7.63649089591304E-03	3.83174338390384E-02	-0.787443253002828	3.86285043400696E-02	-0.789254819455708	-8.57061776601692E-03	-1.38039392104234E-02	0	0	0	0
446000000	3.17936411859396E-02	-8.13199771896188E-03	3.51183787828962E-02	-0.787327913015998	3.74901915680774E-02	-0.789455810704206	-9.05175838856351E-03	-1.39536765683474E-02	0	0	0	0
447000000	3.03938752497905E-02	-7.91613742392381E-03	3.20893640988929E-02	-0.787932189142534	3.41072403866925E-02	-0.789192336239363	-7.26014458747525E-03	-1.46043680061477E-02	0	0	0	0
448000000	3.13033615116591E-02	-7.74995960055053E-03	3.12216077818646E-02	-0.787339399790264	3.09600875525791E-02	-0.789143065029647	-7.86496547400523E-03	-1.47064164234778E-02	0	0	0	0
449000000	3.10503318581178E-02	-7.45632577915023E-03	2.77613590444222E-02	-0.787050753851921	2.93754101172322E-02	-0.788925406446129	-6.79869119635816E-03	-1.50422992211705E-02	0	0	0	0
450000000	3.10904214388105E-02	-7.38616185186952E-03	2.57038951251905E-02	-0.786209482114484	2.65164635345007E-02	-0.789062546413589	-8.11492155729979E-03	-1.44303692190708E-02	0	0	0	0
451000000	3.25612794220725E-02	-7.73761234816057E-03	2.26189298529669E-02	-0.786223478471673	2.54147952280613E-02	-0.788853335521742	-8.76633479998395E-03	-1.44430744190452E-02	0	0	0	0
452000000	3.23253213920109E-02	-8.20934804034284E-03	2.01031955748607E-02	-0.787908001935889	2.24793990453076E-02	-0.78924658419677	-6.45556732836116E-03	-1.53810212699932E-02	0	0	0	0
453000000	3.29469523379946E-02	-8.31726538835952E-03	1.61390615510334E-02	-0.788721215999122	2.01246907965949E-02	-0.789486067662489	-5.90295653039602E-03	-1.56007942076281E-02	0	0	0	0
454000000	3.20397320573255E-02	-8.26318131636717E-03	1.51026334963019E-02	-0.788096187058605	1.61927265394694E-02	-0.789622925992954	-6.93849689510285E-03	-1.55715259768791E-02	0	0	0	0
455000000	3.21892080320516E-02	-8.14306615792282E-03	1.17024483315097E-02	-0.788462529732359	1.38759690196876E-02	-0.788459050462026	-5.75788513465519E-03	-1.57315461842837E-02	0	0	0	0
456000000	0.030967944786098	-7.71461058844597E-03	9.49530074884741E-03	-0.78802649477477	1.23772021020058E-02	-0.78892656946167	-6.74708380386949E-03	-1.63159460944016E-02	0	0	0	0
457000000	3.33677725022787E-02	-8.50502775639393E-03	6.57489865893406E-03	-0.787307995816236	8.10075747658274E-03	-0.788452759496831	-7.02904244113327E-03	-1.56090550077039E-02	0	0	0	0
458000000	0.030776945820686	-7.74329180693159E-03	3.44470124303852E-03	-0.787671402420627	5.36668610204873E-03	-0.788148602093487	-5.99213736346685E-03	-1.60022044479705E-02	0	0	0	0
459000000	3.11700196702524E-02	-8.04096388292761E-03	1.22089698595881E-03	-0.787713629614382	2.8547386940255E-03	-0.788886494218219	-7.87096205704211E-03	-1.59525191716139E-02	0	0	0	0
460000000	0.033921739984354	-8.12781947018293E-03	-1.73789516926894E-03	-0.787203409265462	3.12468089408578E-04	-0.787279347606584	-8.78040268301655E-03	-1.58117506042324E-02	0	0	0	0
461000000	3.27651910858087E-02	-7.93241727890398E-03	-3.80319376437694E-03	-0.78662283858802	-1.89288132519328E-03	-0.788339412609797	-6.55262030369255E-03	-1.66117720233201E-02	0	0	0	0
462000000	3.06430852886569E-02	-8.41080950141919E-03	-6.65599228692465E-03	-0.787645542656186	-4.87659790587862E-03	-0.788933598095472	-7.97581805069197E-03	-1.64722668066071E-02	0	0	0	0
463000000	3.27148582487992E-02	-8.20408299361628E-03	-9.17809827230935E-03	-0.785808476491186	-7.13601633554881E-03	-0.788708520516921	-6.19787416574625E-03	-1.68279567327266E-02	0	0	0	0
464000000	3.09980643986313E-02	-8.54745067953966E-03	-1.24990494451277E-02	-0.787228338575877	-9.86507534487673E-03	-0.788798877786377	-4.57592023411708E-03	-1.63938257847851E-02	0	0	0	0
465000000	3.29383933013759E-02	-7.95426940356289E-03	-0.014284545618412	-0.786168569071164	-1.24978599610444E-02	-0.78812610918513	-5.86565994150609E-03	-1.68411137193201E-02	0	0	0	0
466000000	3.37942336520662E-02	-8.28693363722981E-03	-1.68581080494009E-02	-0.787170474114253	-2.68474759229891E-02	-0.794447528134081	-8.36904931106749E-03	-4.94161340463778E-02	0	0	0	0
467000000	0.033736667588157	-8.09744032166698E-03	-1.90662978465047E-02	-0.785510259246653	-1.76115700137389E-02	-0.787673315707028	-4.40357784851156E-03	-1.69153467663846E-02	0	0	0	0
468000000	3.46419467763212E-02	-7.65705942233375E-03	-2.19302834892285E-02	-0.786993295317191	-2.06096499872686E-02	-0.787660272140903	-6.80169712639867E-03	-1.71535585420796E-02	0	0	0	0
469000000	3.19821385883632E-02	-8.46475197187331E-03	-2.52681006309345E-02	-0.785620808063708	-2.28583004269243E-02	-0.787289103691588	-4.16175437141832E-03	-1.73475110457731E-02	0	0	0	0
470000000	3.18750918787725E-02	-8.2666913378335E-03	-2.77272230569754E-02	-0.785872153521077	-2.59690040986768E-02	-0.786461083477	-5.72949317676294E-03	-0.017496931638881	0	0	0	0
471000000	0.034214260525393	-8.23142084003681E-03	-2.99388292794743E-02	-0.78508962276533	-2.78464016608973E-02	-0.786380280763215	-5.3467992670748E-03	-0.017673276639391	0	0	0	0
472000000	3.27183498492428E-02	-8.05623738311073E-03	-3.33024949631214E-02	-0.786204277872363	-3.01636549950161E-02	-0.785753914178268	-5.02322434637777E-03	-1.69636471231494E-02	0	0	0	0
473000000	3.31882957376582E-02	-8.34579064488325E-03	-3.48774969709186E-02	-0.783787379377816	-3.30021234604158E-02	-0.784832705363044	-5.91610933935782E-03	-0.017687413325153	0	0	0	0
474000000	3.33593875567597E-02	-8.78438848004655E-03	-3.82855436544728E-02	-0.785723793682969	-3.65481350661617E-02	-0.786060387302584	-5.93903951575278E-03	-1.81851972465148E-02	0	0	0	0
475000000	3.42120336531343E-02	-8.41179051463164E-03	-4.05507621350056E-02	-0.784904745617805	-3.98835889905462E-02	-0.78672308960064	-5.40558544384359E-03	-1.88685970173795E-02	0	0	0	0
476000000	3.43600695086848E-02	-8.80939961032567E-03	-4.37068421846771E-02	-0.785387123383521	-4.28460920574733E-02	-0.786641007298683	-4.7699146747002E-03	-1.83452471296452E-02	0	0	0	0
477000000	3.44293647741421E-02	-8.63369778816393E-03	-4.61580124784229E-02	-0.784054347883075	-4.44445220677851E-02	-0.784470017128569	-4.01272524605265E-03	-1.81428921205848E-02	0	0	0	0
478000000	3.39676850320055E-02	-8.53271376806353E-03	-4.86048696486518E-02	-0.784841661847789	-4.83229189962659E-02	-0.7841379761398	-3.39480042843428E-03	-1.86547066432135E-02	0	0	0	0
479000000	3.55388286540649E-02	-8.34679232880355E-03	-5.01805236949725E-02	-0.785154114618686	-4.92010451173014E-02	-0.783345892836291	-5.99917093865152E-03	-1.83733165657344E-02	0	0	0	0
480000000	3.47233808507751E-02	-9.4482589536363E-03	-5.32278482425115E-02	-0.785376117154156	-5.21431612199033E-02	-0.78451426894485	-5.30987663986618E-03	-1.95237397384481E-02	0	0	0	0
481000000	3.57130372593205E-02	-8.58681378197305E-03	-5.60428444960463E-02	-0.783232894113583	-5.54718659505164E-02	-0.785009874012586	-4.2595220831748E-03	-1.95373436558137E-02	0	0	0	0
482000000	3.52152441958927E-02	-9.13295328693545E-03	-5.78827300460834E-02	-0.783173712306543	-0.058177950088502	-0.784455179675824	-5.01570031255625E-03	-2.01094593257849E-02	0	0	0	0
483000000	0.035487683518888	-8.66514829199236E-03	-6.14144489575716E-02	-0.783280299611278	-6.14726026550048E-02	-0.784695869528965	-4.9528347423234E-03	-2.02406843461354E-02	0	0	0	0
484000000	3.49299799963085E-02	-0.009670104064786	-6.47225541835096E-02	-0.784425386000329	-6.31279242633383E-02	-0.782415690093187	-4.33966749413927E-03	-1.97470356042921E-02	0	0	0	0
485000000	3.49774799179274E-02	-9.83044190108217E-03	-0.067194371019592	-0.783560007860237	-6.67842451392441E-02	-0.782849426186596	-5.09406891011847E-03	-1.95811341684499E-02	0	0	0	0
486000000	3.51448313343006E-02	-1.00677198528395E-02	-6.94135534171384E-02	-0.782994602769937	-6.78214545175813E-02	-0.782879083525142	-3.09249564770411E-03	-1.91782636058978E-02	0	0	0	0
487000000	3.63819133168044E-02	-9.30567650274084E-03	-0.071654178078911	-0.782373076125708	-7.17135647554858E-02	-0.783360452822064	-2.86559215501733E-03	-1.91046806623644E-02	0	0	0	0
488000000	3.65430570769632E-02	-9.29227534742953E-03	-7.48289595340234E-02	-0.783795737210533	-7.44243989734531E-02	-0.781251812059286	-5.40745448255252E-03	-2.06473474894251E-02	0	0	0	0
489000000	3.56874192383849E-02	-1.00771635105851E-02	-7.67148662613845E-02	-0.781781345742197	-7.65656688337148E-02	-0.781854802387694	-5.05563027387081E-03	-2.08549066375427E-02	0	0	0	0
490000000	3.56201896887536E-02	-9.4584139317482E-03	-7.99105614805906E-02	-0.781677858213883	-7.85851606430491E-02	-0.781428152321035	-3.57006242113798E-03	-2.03741915390239E-02	0	0	0	0
491000000	3.75923172923643E-02	-8.97740597574278E-03	-8.13926815113156E-02	-0.77978658575256	-8.31655883049333E-02	-0.780001680230283	-4.60440486651092E-03	-1.99847999253228E-02	0	0	0	0
492000000	3.83436985973123E-02	-8.86845741863973E-03	-8.51243733898762E-02	-0.780164804133749	-8.30734613752834E-02	-0.779331800781886	-4.18044299545788E-03	-1.99716663324206E-02	0	0	0	0
493000000	0.036653721585973	-8.6747687380094E-03	-8.78667313527134E-02	-0.780163087008334	-8.95681041749507E-02	-0.780563654138089	-2.19127959270334E-03	-1.91233444307772E-02	0	0	0	0
494000000	3.73877698701444E-02	-8.68229777013904E-03	-8.99900309523738E-02	-0.778745238485255	-8.89716972910426E-02	-0.77999393726568	-4.22276756213597E-03	-2.01754988525082E-02	0	0	0	0
495000000	3.70021930860884E-02	-9.04710030792866E-03	-0.093242487749247	-0.779132116325734	-9.14487606576756E-02	-0.778552822241588	-4.48159712432944E-03	-2.14456577702021E-02	0	0	0	0
496000000	3.90747689277961E-02	-0.007521126958649	-9.40170572048844E-02	-0.778001948818379	-9.56829876235004E-02	-0.777846506249836	-3.26388590701041E-03	-2.02828357226878E-02	0	0	0	0
497000000	3.93466056035384E-02	-8.46999039790296E-03	-9.80601653878388E-02	-0.778575260150985	-9.71740306434677E-02	-0.776320049366503	-4.06638748273112E-03	-2.07118460577572E-02	0	0	0	0
498000000	3.78753168367873E-02	-8.89863697813017E-03	-9.96958557061476E-02	-0.777307018574225	-0.100225467138567	-0.777126344373387	-5.30485634922518E-03	-0.021750713128638	0	0	0	0
499000000	3.89889343491295E-02	-8.81370755032141E-03	-0.102109684448994	-0.776523908466883	-0.103047783901476	-0.777363265427874	-5.06743175440754E-03	-2.26340622732822E-02	0	0	0	0
500000000	3.87207029293486E-02	-9.0100596440363E-03	-0.106558510312732	-0.778753106933519	-0.105258963544109	-0.777210881350272	-4.02692420869655E-03	-2.20012926338606E-02	0	0	0	0
501000000	0.036964106968802	-9.64888638412148E-03	-0.106358378220335	-0.775934122739525	-0.10644235827991	-0.774801741120562	-3.5488345842817E-03	-2.11619845720957E-02	0	0	0	0
502000000	3.87621618337238E-02	-8.52601114091268E-03	-0.110835725964204	-0.776478265475933	-0.111255021614736	-0.776215299858798	-4.48726059137621E-03	-2.18547191842967E-02	0	0	0	0
503000000	3.92305949064305E-02	-8.93573165487285E-03	-0.111222064655775	-0.775110585197621	-0.111661636125624	-0.773775494506257	-3.29203584581619E-03	-2.20690517410836E-02	0	0	0	0
504000000	3.86538892716943E-02	-8.5917259003312E-03	-0.115921876294908	-0.775240115479793	-0.115592016139248	-0.774904604788438	-3.47995705043728E-03	-2.21362358095713E-02	0	0	0	0
505000000	3.84567109149668E-02	-8.87394280981627E-03	-0.11663247347455	-0.773773666237331	-0.117662271866739	-0.77345286582547	-3.9918304525584E-03	-2.32594671298895E-02	0	0	0	0
506000000	0.038036081443607	-1.01671427716389E-02	-0.121017730373696	-0.77614240936024	-0.120557746355864	-0.775758202229696	-3.48244162907711E-03	-2.25466558803843E-02	0	0	0	0
507000000	3.95939024587215E-02	-0.007947278753089	-0.122624453179739	-0.773590396816963	-0.123533751574582	-0.772322170985694	-3.01078760508204E-03	-2.29420913880598E-02	0	0	0	0
