!File created by NanoVNA
# Hz S RI R 50
  10000000  0.023852722  0.002990061
  24950000  0.025099332 -0.002015645
  39900000  0.027435362 -0.005469462
  54850000  0.029864440 -0.011356048
  69800000  0.031112276 -0.017954658
  84750000  0.030174390 -0.025917608
  99700000  0.026090454 -0.033511408
 114650000  0.019077868 -0.040069236
 129600000  0.012498867 -0.042982912
 144550000  0.006145441 -0.043292512
 159500000  0.001113556 -0.042083260
 174450000 -0.002307937 -0.040160960
 189400000 -0.004456285 -0.037888112
 204350000 -0.005370543 -0.036127768
 219300000 -0.005943093 -0.034873628
 234250000 -0.006428163 -0.034392188
 249200000 -0.007298869 -0.034465264
 264150000 -0.008720562 -0.035134568
 279100000 -0.010923196 -0.035362680
 294050000 -0.013424368 -0.035138240
 309000000 -0.016638179 -0.034160160
 323950000 -0.019902502 -0.032105968
 338900000 -0.022463522 -0.028742946
 353850000 -0.024892772 -0.024605918
 368800000 -0.026046016 -0.019642730
 383750000 -0.025921792 -0.014125841
 398700000 -0.024266128 -0.008721583
 413650000 -0.021058684 -0.003313528
 428600000 -0.016524040  0.001309769
 443550000 -0.011078546  0.005018379
 458500000 -0.004862014  0.007636161
 473450000  0.001347251  0.008868386
 488400000  0.007596102  0.008576292
 503350000  0.013217550  0.007341650
 518300000  0.018625696  0.005457930
 533250000  0.022548996  0.002401499
 548200000  0.026040526 -0.000587838
 563150000  0.028618768 -0.003767620
 578100000  0.030359108 -0.006435284
 593050000  0.032028224 -0.008837526
 608000000  0.033644388 -0.010945112
 622950000  0.035448512 -0.012331171
 637900000  0.037704652 -0.013518729
 652850000  0.040984708 -0.014257415
 667800000  0.044805812 -0.015045152
 682750000  0.049585908 -0.016067723
 697700000  0.055297636 -0.017687638
 712650000  0.061373916 -0.019986286
 727600000  0.067778480 -0.023244206
 742550000  0.073963904 -0.027755582
 757500000  0.079924928 -0.033328008
 772450000  0.085295672 -0.039622760
 787400000  0.089436320 -0.046392316
 802350000  0.092695112 -0.053794908
 817300000  0.094608616 -0.061625232
 832250000  0.095438032 -0.069422008
 847200000  0.095161864 -0.076880688
 862150000  0.093899208 -0.083966808
 877100000  0.092185016 -0.090222720
 892050000  0.089870368 -0.095633064
 907000000  0.087771992 -0.100506432
 921950000  0.085749840 -0.104587952
 936900000  0.084964272 -0.107689304
 951850000  0.084524272 -0.110715440
 966800000  0.084733912 -0.113623112
 981750000  0.085533296 -0.116733928
 996700000  0.086505104 -0.120498160
1011650000  0.088055544 -0.124879952
1026600000  0.089696640 -0.129971896
1041550000  0.089997096 -0.136038688
1056500000  0.089511544 -0.142722592
1071450000  0.087705608 -0.149855792
1086400000  0.084360888 -0.156906240
1101350000  0.079665576 -0.163610544
1116300000  0.073317336 -0.169868000
1131250000  0.066178820 -0.175359168
1146200000  0.057292784 -0.179656976
1161150000  0.048883572 -0.182545648
1176100000  0.041006548 -0.183688272
1191050000  0.033387066 -0.183836224
1206000000  0.027470104 -0.182930016
1220950000  0.023151952 -0.180984368
1235900000  0.020467920 -0.179199040
1250850000  0.018934276 -0.177593360
1265800000  0.019149976 -0.176976528
1280750000  0.019805114 -0.177265792
1295700000  0.020336636 -0.178224640
1310650000  0.021359840 -0.180610032
1325600000  0.021437826 -0.183355920
1340550000  0.019210862 -0.186687488
1355500000  0.015842978 -0.189628048
1370450000  0.010810128 -0.192372384
1385400000  0.004088807 -0.193897808
1400350000 -0.003386716 -0.193443328
1415300000 -0.010852379 -0.191490256
1430250000 -0.016898358 -0.188338464
1445200000 -0.023469102 -0.185467024
1460150000 -0.031110018 -0.179558800
1475100000 -0.033361468 -0.172313200
1490050000 -0.033628608 -0.164358320
1505000000 -0.031243596 -0.158244064
1519950000 -0.027069952 -0.153222720
1534900000 -0.020362992 -0.150067248
1549850000 -0.013928983 -0.149069392
1564800000 -0.006995850 -0.149873840
1579750000 -0.000352293 -0.152088592
1594700000  0.003038667 -0.155303408
1609650000  0.005523023 -0.159177904
1624600000  0.004729657 -0.162749904
1639550000  0.001933539 -0.164539776
1654500000 -0.001996696 -0.165100032
1669450000 -0.006468321 -0.163215232
1684400000 -0.011382096 -0.160122416
1699350000 -0.016059604 -0.154129536
1714300000 -0.017675396 -0.147765808
1729250000 -0.018012046 -0.140383072
1744200000 -0.014988749 -0.133770016
1759150000 -0.009954190 -0.128488272
1774100000 -0.002712833 -0.125687568
1789050000  0.006013939 -0.125428720
1804000000  0.014914291 -0.128516976
1818950000  0.024588108 -0.134152680
1833900000  0.032304268 -0.142144880
1848850000  0.037522612 -0.151541808
1863800000  0.038600612 -0.161268688
1878750000  0.037418680 -0.170301184
1893700000  0.034233752 -0.176721744
1908650000  0.028390650 -0.181403968
1923600000  0.022000184 -0.182839328
1938550000  0.013592668 -0.181262432
1953500000  0.007867956 -0.177559104
1968450000  0.003250922 -0.170373728
1983400000  0.001140988 -0.164188128
1998350000  0.002850383 -0.158163072
2013300000  0.003515842 -0.152649136
2028250000  0.010227165 -0.150517120
2043200000  0.015892093 -0.150278192
2058150000  0.023893220 -0.153516384
2073100000  0.027987658 -0.161154704
2088050000  0.032866576 -0.169210400
2103000000  0.034229600 -0.179807200
2117950000  0.033044768 -0.189834816
2132900000  0.029434400 -0.199100608
2147850000  0.021652682 -0.205398880
2162800000  0.012547595 -0.207550608
2177750000  0.002674055 -0.206468384
2192700000 -0.007854792 -0.200055216
2207650000 -0.015273435 -0.192292752
2222600000 -0.020428284 -0.180415440
2237550000 -0.022979008 -0.166506976
2252500000 -0.022371572 -0.152169376
2267450000 -0.017031712 -0.142523840
2282400000 -0.011697539 -0.133223144
2297350000 -0.003125995 -0.127881080
2312300000  0.004306564 -0.126544536
2327250000  0.012110921 -0.128447440
2342200000  0.016971340 -0.132589328
2357150000  0.019319262 -0.139300560
2372100000  0.017964348 -0.145748784
2387050000  0.015841647 -0.150250288
2402000000  0.010896098 -0.153523248
2416950000  0.005492364 -0.151028368
2431900000  0.001303292 -0.146732720
2446850000 -0.003079766 -0.136759408
2461800000 -0.004203475 -0.124695008
2476750000 -0.002452621 -0.110105464
2491700000  0.002122703 -0.096381552
2506650000  0.012819988 -0.080989032
2521600000  0.024951868 -0.068147904
2536550000  0.040599004 -0.061608496
2551500000  0.057817732 -0.056391340
2566450000  0.072690504 -0.060178352
2581400000  0.087806984 -0.065730104
2596350000  0.098091648 -0.074897336
2611300000  0.105752800 -0.085190224
2626250000  0.110676920 -0.096376240
2641200000  0.111459368 -0.105797968
2656150000  0.110039504 -0.113440576
2671100000  0.109182264 -0.118863144
2686050000  0.109694904 -0.120796344
2701000000  0.112827832 -0.119728000
2715950000  0.117621264 -0.116232760
2730900000  0.125901968 -0.112706968
2745850000  0.138921984 -0.107436384
2760800000  0.155200640 -0.104077544
2775750000  0.171879568 -0.105093640
2790700000  0.185180768 -0.112163800
2805650000  0.203707856 -0.120237848
2820600000  0.214619376 -0.134540880
2835550000  0.227028496 -0.154148416
2850500000  0.227767184 -0.170041232
2865450000  0.230507264 -0.191379872
2880400000  0.227366288 -0.208712352
2895350000  0.221021008 -0.225142496
2910300000  0.212594512 -0.238938880
2925250000  0.205015872 -0.250124448
2940200000  0.189887408 -0.261769568
2955150000  0.186679984 -0.263187552
2970100000  0.182876576 -0.268355008
2985050000  0.179122624 -0.272867488
3000000000  0.182276080 -0.275176480
