!File created by NanoVNA
# Hz S RI R 50
  10000000  0.024575756  0.002748971  0.829735680 -0.019449826 0 0 0 0
  24950000  0.025383280 -0.000952762  0.830604032 -0.066187056 0 0 0 0
  39900000  0.027712694 -0.003131876  0.828507392 -0.107160280 0 0 0 0
  54850000  0.030298460 -0.008132891  0.826821248 -0.147844688 0 0 0 0
  69800000  0.031713122 -0.013753705  0.823107264 -0.191757856 0 0 0 0
  84750000  0.030913816 -0.020829754  0.815167488 -0.236101600 0 0 0 0
  99700000  0.027189276 -0.027360694  0.802817664 -0.280281952 0 0 0 0
 114650000  0.021173226 -0.033116210  0.785377664 -0.325185792 0 0 0 0
 129600000  0.015109689 -0.035546320  0.765659648 -0.366132096 0 0 0 0
 144550000  0.009527253 -0.035114516  0.744798784 -0.405147296 0 0 0 0
 159500000  0.005211559 -0.033382674  0.720785152 -0.441921696 0 0 0 0
 174450000  0.002237942 -0.031110210  0.695635328 -0.477262304 0 0 0 0
 189400000  0.000740502 -0.028420276  0.668959104 -0.510941632 0 0 0 0
 204350000  0.000169196 -0.026389922  0.639806656 -0.543809472 0 0 0 0
 219300000  0.000013239 -0.024718652  0.609797184 -0.574611904 0 0 0 0
 234250000  0.000161805 -0.023830846  0.577136256 -0.603686592 0 0 0 0
 249200000 -0.000198424 -0.023804788  0.543750464 -0.630188608 0 0 0 0
 264150000 -0.001182568 -0.023762836  0.509066592 -0.654017408 0 0 0 0
 279100000 -0.002955868 -0.023838556  0.474153568 -0.674846912 0 0 0 0
 294050000 -0.005072211 -0.023476378  0.438459744 -0.693996928 0 0 0 0
 309000000 -0.007863801 -0.022349404  0.403535776 -0.711032640 0 0 0 0
 323950000 -0.010681690 -0.020298398  0.368372992 -0.727084864 0 0 0 0
 338900000 -0.013181479 -0.017004352  0.332507968 -0.742768384 0 0 0 0
 353850000 -0.015276800 -0.012928186  0.295274112 -0.755758656 0 0 0 0
 368800000 -0.016327641 -0.007987356  0.257466592 -0.767968448 0 0 0 0
 383750000 -0.015839849 -0.002805482  0.220408880 -0.777802112 0 0 0 0
 398700000 -0.014009247  0.002632924  0.181832544 -0.785501696 0 0 0 0
 413650000 -0.010655249  0.008177327  0.144353296 -0.790831232 0 0 0 0
 428600000 -0.006199952  0.012779906  0.105667072 -0.795418880 0 0 0 0
 443550000 -0.000591933  0.016370375  0.068270944 -0.797603456 0 0 0 0
 458500000  0.005621764  0.019103452  0.030362854 -0.799548480 0 0 0 0
 473450000  0.012105187  0.020343564 -0.008424664 -0.798486720 0 0 0 0
 488400000  0.018456584  0.020364616 -0.046921692 -0.796090240 0 0 0 0
 503350000  0.024288530  0.019229392 -0.085094320 -0.792301312 0 0 0 0
 518300000  0.029569956  0.017385496 -0.122277632 -0.786320512 0 0 0 0
 533250000  0.033654616  0.014875556 -0.160933536 -0.777227136 0 0 0 0
 548200000  0.036789276  0.012073929 -0.197488960 -0.768190272 0 0 0 0
 563150000  0.039307096  0.008980867 -0.232773824 -0.755237568 0 0 0 0
 578100000  0.041175652  0.006476369 -0.267874720 -0.742592128 0 0 0 0
 593050000  0.042715284  0.004387678 -0.303443648 -0.726728000 0 0 0 0
 608000000  0.044261268  0.002589216 -0.337021856 -0.709986304 0 0 0 0
 622950000  0.045686460  0.001239714 -0.368484992 -0.693195968 0 0 0 0
 637900000  0.047632468  0.000356777 -0.399969088 -0.674427072 0 0 0 0
 652850000  0.050699104 -0.000191811 -0.429755168 -0.655464384 0 0 0 0
 667800000  0.054446492 -0.000801899 -0.461958816 -0.633820928 0 0 0 0
 682750000  0.058987748 -0.001518542 -0.492566784 -0.610122112 0 0 0 0
 697700000  0.064351000 -0.002967509 -0.520759456 -0.585416576 0 0 0 0
 712650000  0.070150448 -0.004679650 -0.549453760 -0.558526272 0 0 0 0
 727600000  0.076335248 -0.007551519 -0.576078976 -0.529941568 0 0 0 0
 742550000  0.082750872 -0.011118835 -0.599211200 -0.500367328 0 0 0 0
 757500000  0.088692976 -0.015858299 -0.621630912 -0.467985792 0 0 0 0
 772450000  0.094116360 -0.021309514 -0.642046976 -0.435896192 0 0 0 0
 787400000  0.098504264 -0.027259228 -0.660091712 -0.400422240 0 0 0 0
 802350000  0.102203960 -0.033962404 -0.674300416 -0.369629248 0 0 0 0
 817300000  0.104743112 -0.040526100 -0.687389824 -0.336965024 0 0 0 0
 832250000  0.105992368 -0.047775876 -0.699785344 -0.303627808 0 0 0 0
 847200000  0.106315560 -0.054835508 -0.709833536 -0.273544704 0 0 0 0
 862150000  0.105272896 -0.061403796 -0.720417024 -0.240511136 0 0 0 0
 877100000  0.103695344 -0.067241584 -0.730420224 -0.210701408 0 0 0 0
 892050000  0.101735976 -0.072244320 -0.740237504 -0.177145312 0 0 0 0
 907000000  0.099609208 -0.076743424 -0.749757184 -0.144187712 0 0 0 0
 921950000  0.098261616 -0.080147336 -0.758518784 -0.109800192 0 0 0 0
 936900000  0.097585928 -0.083398800 -0.766397248 -0.072667888 0 0 0 0
 951850000  0.097530120 -0.085510952 -0.772171968 -0.035326620 0 0 0 0
 966800000  0.097932576 -0.088395584 -0.774542080  0.006354361 0 0 0 0
 981750000  0.099588616 -0.090586904 -0.773199488  0.047079064 0 0 0 0
 996700000  0.101084600 -0.093834008 -0.768389888  0.089176488 0 0 0 0
1011650000  0.103589808 -0.097709120 -0.759019904  0.127657904 0 0 0 0
1026600000  0.105607080 -0.102448536 -0.746325376  0.166950496 0 0 0 0
1041550000  0.107110264 -0.107791928 -0.731236224  0.202319440 0 0 0 0
1056500000  0.107731136 -0.113941160 -0.714146880  0.235553200 0 0 0 0
1071450000  0.107043688 -0.120671320 -0.698105984  0.263803872 0 0 0 0
1086400000  0.104948944 -0.127109424 -0.682148160  0.289969024 0 0 0 0
1101350000  0.101271352 -0.133896872 -0.667511424  0.315368224 0 0 0 0
1116300000  0.095689160 -0.140146304 -0.654202496  0.341153568 0 0 0 0
1131250000  0.089450368 -0.145694272 -0.641178816  0.368331040 0 0 0 0
1146200000  0.081736928 -0.149929632 -0.627923840  0.396539168 0 0 0 0
1161150000  0.073634888 -0.152970224 -0.611770048  0.427540864 0 0 0 0
1176100000  0.066419572 -0.154457872 -0.594951424  0.457663584 0 0 0 0
1191050000  0.059318612 -0.155215616 -0.574350848  0.488307680 0 0 0 0
1206000000  0.053724500 -0.154236960 -0.552412736  0.517618112 0 0 0 0
1220950000  0.049117596 -0.153026384 -0.526468800  0.547227392 0 0 0 0
1235900000  0.046995700 -0.151613248 -0.499106272  0.574299904 0 0 0 0
1250850000  0.046154896 -0.149979776 -0.468587776  0.599781504 0 0 0 0
1265800000  0.046442580 -0.149505600 -0.434998944  0.624100480 0 0 0 0
1280750000  0.048049900 -0.149941056 -0.402548928  0.644270976 0 0 0 0
1295700000  0.049249100 -0.150681664 -0.366713760  0.662058560 0 0 0 0
1310650000  0.051481460 -0.153845408 -0.328460768  0.675892800 0 0 0 0
1325600000  0.052370640 -0.156801440 -0.294308032  0.684422528 0 0 0 0
1340550000  0.050522756 -0.161180064 -0.259146304  0.691738048 0 0 0 0
1355500000  0.047577096 -0.164558336 -0.227709072  0.696510784 0 0 0 0
1370450000  0.043230812 -0.167696304 -0.199759568  0.702143616 0 0 0 0
1385400000  0.036933032 -0.169919104 -0.172665504  0.709132800 0 0 0 0
1400350000  0.029749082 -0.170268880 -0.143840608  0.717089536 0 0 0 0
1415300000  0.021196778 -0.168958576 -0.112159584  0.726857024 0 0 0 0
1430250000  0.013920879 -0.165852064 -0.080682088  0.735136256 0 0 0 0
1445200000  0.006591855 -0.161310880 -0.044220824  0.741738368 0 0 0 0
1460150000  0.000594832 -0.155456752 -0.005427863  0.743383680 0 0 0 0
1475100000 -0.001458190 -0.148907952  0.029531404  0.744556800 0 0 0 0
1490050000 -0.002367276 -0.141971888  0.067948680  0.742720000 0 0 0 0
1505000000 -0.000426925 -0.135464720  0.105070968  0.738465600 0 0 0 0
1519950000  0.003948055 -0.130631808  0.139059600  0.732567104 0 0 0 0
1534900000  0.010072496 -0.127452984  0.176141088  0.725312512 0 0 0 0
1549850000  0.016959788 -0.126027464  0.211365440  0.714903040 0 0 0 0
1564800000  0.023848754 -0.126574296  0.249005792  0.703142592 0 0 0 0
1579750000  0.030886292 -0.128541632  0.279279008  0.690685568 0 0 0 0
1594700000  0.035137248 -0.131799400  0.314329728  0.671747072 0 0 0 0
1609650000  0.038139008 -0.135326960  0.342707072  0.653932608 0 0 0 0
1624600000  0.038156944 -0.138866416  0.372156128  0.633580608 0 0 0 0
1639550000  0.036058320 -0.141146880  0.401647072  0.614944768 0 0 0 0
1654500000  0.032287966 -0.141569200  0.427026720  0.594839808 0 0 0 0
1669450000  0.027982924 -0.140326800  0.454826528  0.573994112 0 0 0 0
1684400000  0.023325388 -0.137341200  0.480387136  0.554786112 0 0 0 0
1699350000  0.018980322 -0.131461992  0.505900672  0.531107552 0 0 0 0
1714300000  0.016392911 -0.125049320  0.530755168  0.506059584 0 0 0 0
1729250000  0.016192735 -0.117468376  0.555574016  0.479801248 0 0 0 0
1744200000  0.018371486 -0.110423528  0.577098176  0.454015456 0 0 0 0
1759150000  0.023341744 -0.104718560  0.598790848  0.423732768 0 0 0 0
1774100000  0.030846432 -0.101323416  0.616960384  0.393229536 0 0 0 0
1789050000  0.039717876 -0.100693416  0.634889984  0.363972896 0 0 0 0
1804000000  0.049608236 -0.102973176  0.650599488  0.333495264 0 0 0 0
1818950000  0.059523352 -0.107852552  0.666773696  0.299335264 0 0 0 0
1833900000  0.068902448 -0.114864272  0.675174592  0.270142912 0 0 0 0
1848850000  0.075333696 -0.124114248  0.687336064  0.235588688 0 0 0 0
1863800000  0.078387408 -0.134350736  0.698969536  0.201746016 0 0 0 0
1878750000  0.079088752 -0.143649184  0.705789248  0.173431664 0 0 0 0
1893700000  0.077201752 -0.151245488  0.714515776  0.136228896 0 0 0 0
1908650000  0.072468368 -0.156751936  0.720147712  0.102635344 0 0 0 0
1923600000  0.066735908 -0.159266992  0.723917440  0.069505960 0 0 0 0
1938550000  0.059213260 -0.159193488  0.726830272  0.032506850 0 0 0 0
1953500000  0.053569788 -0.156122448  0.727356672 -0.001971531 0 0 0 0
1968450000  0.049095356 -0.150278384  0.724120384 -0.040814468 0 0 0 0
1983400000  0.046699504 -0.144346448  0.721176960 -0.076357256 0 0 0 0
1998350000  0.047879416 -0.138802032  0.714857920 -0.109539008 0 0 0 0
2013300000  0.050631480 -0.133439184  0.705066176 -0.139666848 0 0 0 0
2028250000  0.056527360 -0.131274464  0.696727168 -0.173806704 0 0 0 0
2043200000  0.061590048 -0.131982016  0.685030080 -0.209052640 0 0 0 0
2058150000  0.069036624 -0.134923936  0.673041152 -0.236142800 0 0 0 0
2073100000  0.074259504 -0.142657824  0.657649088 -0.271181184 0 0 0 0
2088050000  0.080763280 -0.151725584  0.648217728 -0.295539744 0 0 0 0
2103000000  0.083055688 -0.163531584  0.634184704 -0.325989632 0 0 0 0
2117950000  0.082793112 -0.175047152  0.619539200 -0.355463552 0 0 0 0
2132900000  0.080662152 -0.185699088  0.602709824 -0.381614432 0 0 0 0
2147850000  0.074362552 -0.193542128  0.585574336 -0.412927552 0 0 0 0
2162800000  0.066398456 -0.197576720  0.566871744 -0.440189120 0 0 0 0
2177750000  0.056770476 -0.199175392  0.543987648 -0.468324448 0 0 0 0
2192700000  0.046212496 -0.195631776  0.517343648 -0.494792224 0 0 0 0
2207650000  0.037756240 -0.189290352  0.494794176 -0.520083424 0 0 0 0
2222600000  0.030508554 -0.179472192  0.465996416 -0.544959808 0 0 0 0
2237550000  0.027295908 -0.168646800  0.442241952 -0.563975808 0 0 0 0
2252500000  0.024799164 -0.156518928  0.408980896 -0.587663232 0 0 0 0
2267450000  0.028543280 -0.145796608  0.380642784 -0.601552640 0 0 0 0
2282400000  0.033149266 -0.137828576  0.352134496 -0.616757312 0 0 0 0
2297350000  0.038540884 -0.132142696  0.321004192 -0.631500352 0 0 0 0
2312300000  0.045542676 -0.131144672  0.291686240 -0.642761856 0 0 0 0
2327250000  0.051301032 -0.133352432  0.259432944 -0.656254400 0 0 0 0
2342200000  0.056450624 -0.138379616  0.230070784 -0.667945536 0 0 0 0
2357150000  0.059236252 -0.144461808  0.206793344 -0.674834176 0 0 0 0
2372100000  0.055615632 -0.152847616  0.168527696 -0.687275008 0 0 0 0
2387050000  0.053167980 -0.158090448  0.143323136 -0.695169024 0 0 0 0
2402000000  0.047097772 -0.163730144  0.107273640 -0.704988928 0 0 0 0
2416950000  0.040905556 -0.162071824  0.075369736 -0.712529600 0 0 0 0
2431900000  0.035176944 -0.158917008  0.033138338 -0.718461248 0 0 0 0
2446850000  0.028961488 -0.150212384 -0.000816885 -0.721231488 0 0 0 0
2461800000  0.025264070 -0.138255680 -0.037776856 -0.718749376 0 0 0 0
2476750000  0.024264478 -0.123242184 -0.077370392 -0.714284864 0 0 0 0
2491700000  0.026784552 -0.108030384 -0.116589960 -0.704810752 0 0 0 0
2506650000  0.034082964 -0.093363848 -0.146783664 -0.695136064 0 0 0 0
2521600000  0.045391572 -0.077864872 -0.185308864 -0.682569216 0 0 0 0
2536550000  0.057060552 -0.069648800 -0.215930480 -0.674171776 0 0 0 0
2551500000  0.072850352 -0.062905796 -0.244579776 -0.661969088 0 0 0 0
2566450000  0.086462792 -0.064267764 -0.277250496 -0.650356672 0 0 0 0
2581400000  0.100500864 -0.068180488 -0.306387424 -0.634971392 0 0 0 0
2596350000  0.109904984 -0.074930920 -0.339759328 -0.614909312 0 0 0 0
2611300000  0.118040488 -0.083110256 -0.366814272 -0.593788928 0 0 0 0
2626250000  0.122117944 -0.093593928 -0.391104128 -0.572245248 0 0 0 0
2641200000  0.122087288 -0.101270352 -0.410970048 -0.551678272 0 0 0 0
2656150000  0.122535904 -0.108840208 -0.435551136 -0.530602208 0 0 0 0
2671100000  0.121471344 -0.116506192 -0.459914944 -0.514846912 0 0 0 0
2686050000  0.120781472 -0.114914392 -0.479678208 -0.498989696 0 0 0 0
2701000000  0.121704112 -0.113028848 -0.504243968 -0.478934464 0 0 0 0
2715950000  0.126657440 -0.111379864 -0.535721952 -0.458330944 0 0 0 0
2730900000  0.135616256 -0.104694464 -0.563602560 -0.434588256 0 0 0 0
2745850000  0.146690192 -0.097718032 -0.590155584 -0.404507712 0 0 0 0
2760800000  0.162700080 -0.092037816 -0.616614080 -0.366793376 0 0 0 0
2775750000  0.178879632 -0.089999928 -0.634615360 -0.329628512 0 0 0 0
2790700000  0.193879312 -0.094239384 -0.651067456 -0.284921952 0 0 0 0
2805650000  0.213021440 -0.098633656 -0.654344000 -0.248386752 0 0 0 0
2820600000  0.225728752 -0.110842432 -0.662927680 -0.206225248 0 0 0 0
2835550000  0.238573680 -0.127314616 -0.665483328 -0.165861312 0 0 0 0
2850500000  0.243766016 -0.143010240 -0.658476992 -0.134084240 0 0 0 0
2865450000  0.246106320 -0.163489664 -0.655859776 -0.106166464 0 0 0 0
2880400000  0.245776576 -0.179825984 -0.649781120 -0.078451560 0 0 0 0
2895350000  0.242656608 -0.199672016 -0.643498432 -0.055330980 0 0 0 0
2910300000  0.233906912 -0.214244832 -0.639707328 -0.027520104 0 0 0 0
2925250000  0.228585152 -0.224455488 -0.638021440 -0.010710801 0 0 0 0
2940200000  0.217642176 -0.237148416 -0.639386688  0.013555221 0 0 0 0
2955150000  0.213592608 -0.243465632 -0.643218368  0.031500046 0 0 0 0
2970100000  0.206180848 -0.247979008 -0.645077056  0.063803904 0 0 0 0
2985050000  0.210300432 -0.251954768 -0.657546944  0.079719128 0 0 0 0
3000000000  0.212160000 -0.255717312 -0.666342912  0.119468968 0 0 0 0
